date Wed Feb 23 11:21:23.309 am 2022
base hex  timestamps absolute
no internal events logged
// version 14.3.0
// Measurement UUID: a248fbae-b64e-477b-a806-b598eca52119
   0.002002 1  CF00400x        Rx   d 8 00 00 00 00 00 00 00 00  Length = 288247 BitCount = 147 ID = 217056256x
   0.002298 1  18FECA00x       Rx   d 8 00 00 00 00 00 00 00 00  Length = 290247 BitCount = 148 ID = 419351040x
   1.001337 1  CF00400x        Rx   d 8 00 00 00 08 00 00 00 00  Length = 288247 BitCount = 147 ID = 217056256x
   1.001633 1  18FECA00x       Rx   d 8 00 00 00 00 00 00 00 00  Length = 290247 BitCount = 148 ID = 419351040x
   2.001182 1  CF00400x        Rx   d 8 00 00 00 10 00 00 00 00  Length = 290247 BitCount = 148 ID = 217056256x
   2.001479 1  18FECA00x       Rx   d 8 00 00 00 00 00 00 00 00  Length = 290247 BitCount = 148 ID = 419351040x
   3.001151 1  CF00400x        Rx   d 8 00 00 00 18 00 00 00 00  Length = 290247 BitCount = 148 ID = 217056256x
   3.001448 1  18FECA00x       Rx   d 8 00 00 00 00 00 00 00 00  Length = 290247 BitCount = 148 ID = 419351040x
   4.001129 1  CF00400x        Rx   d 8 00 00 00 20 00 00 00 00  Length = 286247 BitCount = 146 ID = 217056256x
   4.001425 1  18FECA00x       Rx   d 8 00 00 00 00 00 00 00 00  Length = 290247 BitCount = 148 ID = 419351040x
   5.001120 1  CF00400x        Rx   d 8 00 00 00 28 00 00 00 00  Length = 290247 BitCount = 148 ID = 217056256x
   5.001417 1  18FECA00x       Rx   d 8 00 00 00 00 00 00 00 00  Length = 290247 BitCount = 148 ID = 419351040x
   6.001116 1  CF00400x        Rx   d 8 00 00 00 30 00 00 00 00  Length = 288247 BitCount = 147 ID = 217056256x
   6.001412 1  18FECA00x       Rx   d 8 00 00 00 00 00 00 00 00  Length = 290000 BitCount = 148 ID = 419351040x
   7.001388 1  CF00400x        Rx   d 8 00 00 00 38 00 00 00 00  Length = 286247 BitCount = 146 ID = 217056256x
   7.001684 1  18FECA00x       Rx   d 8 00 00 00 00 00 00 00 00  Length = 290000 BitCount = 148 ID = 419351040x
   8.001197 1  CF00400x        Rx   d 8 00 00 00 40 00 00 00 00  Length = 286263 BitCount = 146 ID = 217056256x
   8.001493 1  18FECA00x       Rx   d 8 00 00 00 00 00 00 00 00  Length = 290263 BitCount = 148 ID = 419351040x
   9.001323 1  CF00400x        Rx   d 8 00 00 00 48 00 00 00 00  Length = 290247 BitCount = 148 ID = 217056256x
   9.001619 1  18FECA00x       Rx   d 8 00 00 00 00 00 00 00 00  Length = 290247 BitCount = 148 ID = 419351040x
  10.001298 1  CF00400x        Rx   d 8 00 00 00 50 00 00 00 00  Length = 286263 BitCount = 146 ID = 217056256x
  10.001591 1  18FECA00x       Rx   d 8 00 00 64 00 00 00 00 00  Length = 286263 BitCount = 146 ID = 419351040x
  11.001304 1  CF00400x        Rx   d 8 00 00 00 58 00 00 00 00  Length = 286263 BitCount = 146 ID = 217056256x
  11.001596 1  18FECA00x       Rx   d 8 00 00 64 00 00 00 00 00  Length = 286263 BitCount = 146 ID = 419351040x
  12.001196 1  CF00400x        Rx   d 8 00 00 00 60 00 00 00 00  Length = 286247 BitCount = 146 ID = 217056256x
  12.001488 1  18FECA00x       Rx   d 8 00 00 64 00 00 00 00 00  Length = 286247 BitCount = 146 ID = 419351040x
  13.001273 1  CF00400x        Rx   d 8 00 00 00 68 00 00 00 00  Length = 290262 BitCount = 148 ID = 217056256x
  13.001565 1  18FECA00x       Rx   d 8 00 00 64 00 00 00 00 00  Length = 286262 BitCount = 146 ID = 419351040x
  14.001212 1  CF00400x        Rx   d 8 00 00 00 70 00 00 00 00  Length = 288015 BitCount = 147 ID = 217056256x
  14.001504 1  18FECA00x       Rx   d 8 00 00 64 00 00 00 00 00  Length = 286262 BitCount = 146 ID = 419351040x
  15.001150 1  CF00400x        Rx   d 8 00 00 00 78 00 00 00 00  Length = 286247 BitCount = 146 ID = 217056256x
  15.001442 1  18FECA00x       Rx   d 8 00 00 64 00 00 00 00 00  Length = 286247 BitCount = 146 ID = 419351040x
  16.001179 1  CF00400x        Rx   d 8 00 00 00 80 00 00 00 00  Length = 290247 BitCount = 148 ID = 217056256x
  16.001471 1  18FECA00x       Rx   d 8 00 00 64 00 00 00 00 00  Length = 286247 BitCount = 146 ID = 419351040x
  17.001205 1  CF00400x        Rx   d 8 00 00 00 88 00 00 00 00  Length = 288247 BitCount = 147 ID = 217056256x
  17.001497 1  18FECA00x       Rx   d 8 00 00 64 00 00 00 00 00  Length = 286247 BitCount = 146 ID = 419351040x
  18.001120 1  CF00400x        Rx   d 8 00 00 00 90 00 00 00 00  Length = 286247 BitCount = 146 ID = 217056256x
  18.001413 1  18FECA00x       Rx   d 8 00 00 64 00 00 00 00 00  Length = 286247 BitCount = 146 ID = 419351040x
  19.001270 1  CF00400x        Rx   d 8 00 00 00 98 00 00 00 00  Length = 286247 BitCount = 146 ID = 217056256x
  19.001562 1  18FECA00x       Rx   d 8 00 00 64 00 00 00 00 00  Length = 286247 BitCount = 146 ID = 419351040x
  20.001138 1  CF00400x        Rx   d 8 00 00 00 A0 00 00 00 00  Length = 288247 BitCount = 147 ID = 217056256x
  20.001430 1  18FECA00x       Rx   d 8 00 00 64 00 00 00 00 00  Length = 286247 BitCount = 146 ID = 419351040x
  21.001327 1  18ECFF4Bx       Rx   d 8 20 0E 00 02 FF CA FE 00  Length = 278263 BitCount = 142 ID = 418185035x
  21.001619 1  CF00400x        Rx   d 8 00 00 00 A8 00 00 00 00  Length = 286263 BitCount = 146 ID = 217056256x
  21.001912 1  18FECA00x       Rx   d 8 00 00 64 00 00 00 00 00  Length = 286263 BitCount = 146 ID = 419351040x
  21.051164 1  18EBFF4Bx       Rx   d 8 01 00 FF 11 11 11 82 22  Length = 270016 BitCount = 138 ID = 418119499x
  21.101378 1  18EBFF4Bx       Rx   d 8 02 22 22 03 33 33 33 01  Length = 268263 BitCount = 137 ID = 418119499x
  22.001100 1  18ECFF4Bx       Rx   d 8 20 0E 00 02 FF CA FE 00  Length = 278263 BitCount = 142 ID = 418185035x
  22.001394 1  CF00400x        Rx   d 8 00 00 00 B0 00 00 00 00  Length = 288263 BitCount = 147 ID = 217056256x
  22.001687 1  18FECA00x       Rx   d 8 00 00 64 00 00 00 00 00  Length = 286263 BitCount = 146 ID = 419351040x
  22.051077 1  18EBFF4Bx       Rx   d 8 01 00 FF 11 11 11 82 22  Length = 270263 BitCount = 138 ID = 418119499x
  22.101026 1  18EBFF4Bx       Rx   d 8 02 22 22 03 33 33 33 01  Length = 268247 BitCount = 137 ID = 418119499x
  23.001105 1  18ECFF4Bx       Rx   d 8 20 0E 00 02 FF CA FE 00  Length = 278247 BitCount = 142 ID = 418185035x
  23.001397 1  CF00400x        Rx   d 8 00 00 00 B8 00 00 00 00  Length = 286247 BitCount = 146 ID = 217056256x
  23.001689 1  18FECA00x       Rx   d 8 00 00 64 00 00 00 00 00  Length = 286247 BitCount = 146 ID = 419351040x
  23.051073 1  18EBFF4Bx       Rx   d 8 01 00 FF 11 11 11 82 22  Length = 270247 BitCount = 138 ID = 418119499x
  23.101030 1  18EBFF4Bx       Rx   d 8 02 22 22 03 33 33 33 01  Length = 268247 BitCount = 137 ID = 418119499x
  24.001284 1  18ECFF4Bx       Rx   d 8 20 0E 00 02 FF CA FE 00  Length = 278247 BitCount = 142 ID = 418185035x
  24.001576 1  CF00400x        Rx   d 8 00 00 00 C0 00 00 00 00  Length = 286247 BitCount = 146 ID = 217056256x
  24.001868 1  18FECA00x       Rx   d 8 00 00 64 00 00 00 00 00  Length = 286247 BitCount = 146 ID = 419351040x
  24.051256 1  18EBFF4Bx       Rx   d 8 01 00 FF 11 11 11 82 22  Length = 270000 BitCount = 138 ID = 418119499x
  24.101251 1  18EBFF4Bx       Rx   d 8 02 22 22 03 33 33 33 01  Length = 268247 BitCount = 137 ID = 418119499x
  25.001285 1  18ECFF4Bx       Rx   d 8 20 0E 00 02 FF CA FE 00  Length = 278000 BitCount = 142 ID = 418185035x
  25.001579 1  CF00400x        Rx   d 8 00 00 00 C8 00 00 00 00  Length = 288247 BitCount = 147 ID = 217056256x
  25.001871 1  18FECA00x       Rx   d 8 00 00 64 00 00 00 00 00  Length = 286247 BitCount = 146 ID = 419351040x
  25.051317 1  18EBFF4Bx       Rx   d 8 01 00 FF 11 11 11 82 22  Length = 270247 BitCount = 138 ID = 418119499x
  25.101276 1  18EBFF4Bx       Rx   d 8 02 22 22 03 33 33 33 01  Length = 268262 BitCount = 137 ID = 418119499x
  26.001092 1  18ECFF4Bx       Rx   d 8 20 0E 00 02 FF CA FE 00  Length = 278262 BitCount = 142 ID = 418185035x
  26.001384 1  CF00400x        Rx   d 8 00 00 00 D0 00 00 00 00  Length = 286262 BitCount = 146 ID = 217056256x
  26.001676 1  18FECA00x       Rx   d 8 00 00 64 00 00 00 00 00  Length = 286262 BitCount = 146 ID = 419351040x
  26.051059 1  18EBFF4Bx       Rx   d 8 01 00 FF 11 11 11 82 22  Length = 270262 BitCount = 138 ID = 418119499x
  26.101111 1  18EBFF4Bx       Rx   d 8 02 22 22 03 33 33 33 01  Length = 268247 BitCount = 137 ID = 418119499x
  27.001179 1  18ECFF4Bx       Rx   d 8 20 0E 00 02 FF CA FE 00  Length = 278247 BitCount = 142 ID = 418185035x
  27.001471 1  CF00400x        Rx   d 8 00 00 00 D8 00 00 00 00  Length = 286000 BitCount = 146 ID = 217056256x
  27.001763 1  18FECA00x       Rx   d 8 00 00 64 00 00 00 00 00  Length = 286247 BitCount = 146 ID = 419351040x
  27.051079 1  18EBFF4Bx       Rx   d 8 01 00 FF 11 11 11 82 22  Length = 270247 BitCount = 138 ID = 418119499x
  27.101261 1  18EBFF4Bx       Rx   d 8 02 22 22 03 33 33 33 01  Length = 268263 BitCount = 137 ID = 418119499x
  28.001222 1  18ECFF4Bx       Rx   d 8 20 0E 00 02 FF CA FE 00  Length = 278263 BitCount = 142 ID = 418185035x
  28.001516 1  CF00400x        Rx   d 8 00 00 00 E0 00 00 00 00  Length = 288263 BitCount = 147 ID = 217056256x
  28.001808 1  18FECA00x       Rx   d 8 00 00 64 00 00 00 00 00  Length = 286263 BitCount = 146 ID = 419351040x
  28.051100 1  18EBFF4Bx       Rx   d 8 01 00 FF 11 11 11 82 22  Length = 270263 BitCount = 138 ID = 418119499x
  28.101238 1  18EBFF4Bx       Rx   d 8 02 22 22 03 33 33 33 01  Length = 268247 BitCount = 137 ID = 418119499x
  29.001161 1  18ECFF4Bx       Rx   d 8 20 0E 00 02 FF CA FE 00  Length = 278247 BitCount = 142 ID = 418185035x
  29.001453 1  CF00400x        Rx   d 8 00 00 00 E8 00 00 00 00  Length = 286000 BitCount = 146 ID = 217056256x
  29.001745 1  18FECA00x       Rx   d 8 00 00 64 00 00 00 00 00  Length = 286247 BitCount = 146 ID = 419351040x
  29.051249 1  18EBFF4Bx       Rx   d 8 01 00 FF 11 11 11 82 22  Length = 270247 BitCount = 138 ID = 418119499x
  29.101057 1  18EBFF4Bx       Rx   d 8 02 22 22 03 33 33 33 01  Length = 268247 BitCount = 137 ID = 418119499x
  30.001294 1  18ECFF4Bx       Rx   d 8 20 0E 00 02 FF CA FE 00  Length = 278247 BitCount = 142 ID = 418185035x
  30.001586 1  CF00400x        Rx   d 8 00 00 00 F0 00 00 00 00  Length = 286247 BitCount = 146 ID = 217056256x
  30.001878 1  18FECA00x       Rx   d 8 00 00 64 00 00 00 00 00  Length = 286247 BitCount = 146 ID = 419351040x
  30.051256 1  18EBFF4Bx       Rx   d 8 01 00 FF 11 11 11 82 22  Length = 270000 BitCount = 138 ID = 418119499x
  30.101364 1  18EBFF4Bx       Rx   d 8 02 22 22 03 33 33 33 01  Length = 268247 BitCount = 137 ID = 418119499x
  31.001141 1  CF00400x        Rx   d 8 00 00 00 F8 00 00 00 00  Length = 288247 BitCount = 147 ID = 217056256x
  31.001433 1  18FECA00x       Rx   d 8 00 00 64 00 00 00 00 00  Length = 286247 BitCount = 146 ID = 419351040x
  32.001198 1  CF00400x        Rx   d 8 00 00 00 00 01 00 00 00  Length = 288247 BitCount = 147 ID = 217056256x
  32.001491 1  18FECA00x       Rx   d 8 00 00 64 00 00 00 00 00  Length = 286247 BitCount = 146 ID = 419351040x
  33.001171 1  CF00400x        Rx   d 8 00 00 00 08 01 00 00 00  Length = 288247 BitCount = 147 ID = 217056256x
  33.001464 1  18FECA00x       Rx   d 8 00 00 64 00 00 00 00 00  Length = 286247 BitCount = 146 ID = 419351040x
  34.001127 1  CF00400x        Rx   d 8 00 00 00 10 01 00 00 00  Length = 288247 BitCount = 147 ID = 217056256x
  34.001419 1  18FECA00x       Rx   d 8 00 00 64 00 00 00 00 00  Length = 286247 BitCount = 146 ID = 419351040x
  35.001197 1  CF00400x        Rx   d 8 00 00 00 18 01 00 00 00  Length = 286247 BitCount = 146 ID = 217056256x
  35.001489 1  18FECA00x       Rx   d 8 00 00 64 00 00 00 00 00  Length = 286247 BitCount = 146 ID = 419351040x
  36.001147 1  CF00400x        Rx   d 8 00 00 00 20 01 00 00 00  Length = 284247 BitCount = 145 ID = 217056256x
  36.001439 1  18FECA00x       Rx   d 8 00 00 64 00 00 00 00 00  Length = 286000 BitCount = 146 ID = 419351040x
  37.001142 1  CF00400x        Rx   d 8 00 00 00 28 01 00 00 00  Length = 284247 BitCount = 145 ID = 217056256x
  37.001434 1  18FECA00x       Rx   d 8 00 00 64 00 00 00 00 00  Length = 286000 BitCount = 146 ID = 419351040x
  38.001188 1  CF00400x        Rx   d 8 00 00 00 30 01 00 00 00  Length = 288262 BitCount = 147 ID = 217056256x
  38.001480 1  18FECA00x       Rx   d 8 00 00 64 00 00 00 00 00  Length = 286262 BitCount = 146 ID = 419351040x
  39.001130 1  CF00400x        Rx   d 8 00 00 00 38 01 00 00 00  Length = 286263 BitCount = 146 ID = 217056256x
  39.001422 1  18FECA00x       Rx   d 8 00 00 64 00 00 00 00 00  Length = 286263 BitCount = 146 ID = 419351040x
  40.001169 1  CF00400x        Rx   d 8 00 00 00 40 01 00 00 00  Length = 286262 BitCount = 146 ID = 217056256x
  40.001462 1  18FECA00x       Rx   d 8 00 00 64 00 00 00 00 00  Length = 286262 BitCount = 146 ID = 419351040x
  41.001165 1  CF00400x        Rx   d 8 00 00 00 48 01 00 00 00  Length = 290263 BitCount = 148 ID = 217056256x
  41.001461 1  18FECA00x       Rx   d 8 00 00 00 00 00 00 00 00  Length = 290263 BitCount = 148 ID = 419351040x
  42.001188 1  CF00400x        Rx   d 8 00 00 00 50 01 00 00 00  Length = 284015 BitCount = 145 ID = 217056256x
  42.001485 1  18FECA00x       Rx   d 8 00 00 00 00 00 00 00 00  Length = 290262 BitCount = 148 ID = 419351040x
  43.001196 1  CF00400x        Rx   d 8 00 00 00 58 01 00 00 00  Length = 284262 BitCount = 145 ID = 217056256x
  43.001492 1  18FECA00x       Rx   d 8 00 00 00 00 00 00 00 00  Length = 290262 BitCount = 148 ID = 419351040x
  44.001173 1  CF00400x        Rx   d 8 00 00 00 60 01 00 00 00  Length = 284247 BitCount = 145 ID = 217056256x
  44.001470 1  18FECA00x       Rx   d 8 00 00 00 00 00 00 00 00  Length = 290247 BitCount = 148 ID = 419351040x
  45.001139 1  CF00400x        Rx   d 8 00 00 00 68 01 00 00 00  Length = 288262 BitCount = 147 ID = 217056256x
  45.001435 1  18FECA00x       Rx   d 8 00 00 00 00 00 00 00 00  Length = 290262 BitCount = 148 ID = 419351040x
  46.001177 1  CF00400x        Rx   d 8 00 00 00 70 01 00 00 00  Length = 288263 BitCount = 147 ID = 217056256x
  46.001473 1  18FECA00x       Rx   d 8 00 00 00 00 00 00 00 00  Length = 290263 BitCount = 148 ID = 419351040x
  47.001226 1  CF00400x        Rx   d 8 00 00 00 78 01 00 00 00  Length = 286000 BitCount = 146 ID = 217056256x
  47.001523 1  18FECA00x       Rx   d 8 00 00 00 00 00 00 00 00  Length = 290247 BitCount = 148 ID = 419351040x
  48.001174 1  CF00400x        Rx   d 8 00 00 00 80 01 00 00 00  Length = 288247 BitCount = 147 ID = 217056256x
  48.001471 1  18FECA00x       Rx   d 8 00 00 00 00 00 00 00 00  Length = 290247 BitCount = 148 ID = 419351040x
  49.001176 1  CF00400x        Rx   d 8 00 00 00 88 01 00 00 00  Length = 286247 BitCount = 146 ID = 217056256x
  49.001472 1  18FECA00x       Rx   d 8 00 00 00 00 00 00 00 00  Length = 290247 BitCount = 148 ID = 419351040x
  50.001218 1  CF00400x        Rx   d 8 00 00 00 90 01 00 00 00  Length = 286000 BitCount = 146 ID = 217056256x
  50.001514 1  18FECA00x       Rx   d 8 00 00 00 00 00 00 00 00  Length = 290247 BitCount = 148 ID = 419351040x
  51.001157 1  18ECFF4Bx       Rx   d 8 20 0E 00 02 FF CA FE 00  Length = 278247 BitCount = 142 ID = 418185035x
  51.001448 1  CF00400x        Rx   d 8 00 00 00 98 01 00 00 00  Length = 284247 BitCount = 145 ID = 217056256x
  51.001744 1  18FECA00x       Rx   d 8 00 00 00 00 00 00 00 00  Length = 290247 BitCount = 148 ID = 419351040x
  51.051162 1  18EBFF4Bx       Rx   d 8 01 00 FF 11 11 11 82 22  Length = 270262 BitCount = 138 ID = 418119499x
  51.101272 1  18EBFF4Bx       Rx   d 8 02 22 22 03 33 33 33 01  Length = 268262 BitCount = 137 ID = 418119499x
  52.001128 1  18ECFF4Bx       Rx   d 8 20 0E 00 02 FF CA FE 00  Length = 278262 BitCount = 142 ID = 418185035x
  52.001420 1  CF00400x        Rx   d 8 00 00 00 A0 01 00 00 00  Length = 286262 BitCount = 146 ID = 217056256x
  52.001717 1  18FECA00x       Rx   d 8 00 00 00 00 00 00 00 00  Length = 290262 BitCount = 148 ID = 419351040x
  52.051284 1  18EBFF4Bx       Rx   d 8 01 00 FF 11 11 11 82 22  Length = 270247 BitCount = 138 ID = 418119499x
  52.101225 1  18EBFF4Bx       Rx   d 8 02 22 22 03 33 33 33 01  Length = 268247 BitCount = 137 ID = 418119499x
  53.001142 1  18ECFF4Bx       Rx   d 8 20 0E 00 02 FF CA FE 00  Length = 278247 BitCount = 142 ID = 418185035x
  53.001432 1  CF00400x        Rx   d 8 00 00 00 A8 01 00 00 00  Length = 284247 BitCount = 145 ID = 217056256x
  53.001728 1  18FECA00x       Rx   d 8 00 00 00 00 00 00 00 00  Length = 290247 BitCount = 148 ID = 419351040x
  53.050838 1  18EBFF4Bx       Rx   d 8 01 00 FF 11 11 11 82 22  Length = 270263 BitCount = 138 ID = 418119499x
  53.101248 1  18EBFF4Bx       Rx   d 8 02 22 22 03 33 33 33 01  Length = 268263 BitCount = 137 ID = 418119499x
  54.001158 1  18ECFF4Bx       Rx   d 8 20 0E 00 02 FF CA FE 00  Length = 278263 BitCount = 142 ID = 418185035x
  54.001452 1  CF00400x        Rx   d 8 00 00 00 B0 01 00 00 00  Length = 288263 BitCount = 147 ID = 217056256x
  54.001749 1  18FECA00x       Rx   d 8 00 00 00 00 00 00 00 00  Length = 290263 BitCount = 148 ID = 419351040x
  54.051236 1  18EBFF4Bx       Rx   d 8 01 00 FF 11 11 11 82 22  Length = 270247 BitCount = 138 ID = 418119499x
  54.101239 1  18EBFF4Bx       Rx   d 8 02 22 22 03 33 33 33 01  Length = 268247 BitCount = 137 ID = 418119499x
  55.001137 1  18ECFF4Bx       Rx   d 8 20 0E 00 02 FF CA FE 00  Length = 278247 BitCount = 142 ID = 418185035x
  55.001429 1  CF00400x        Rx   d 8 00 00 00 B8 01 00 00 00  Length = 286247 BitCount = 146 ID = 217056256x
  55.001725 1  18FECA00x       Rx   d 8 00 00 00 00 00 00 00 00  Length = 290247 BitCount = 148 ID = 419351040x
  55.051481 1  18EBFF4Bx       Rx   d 8 01 00 FF 11 11 11 82 22  Length = 270247 BitCount = 138 ID = 418119499x
  55.101129 1  18EBFF4Bx       Rx   d 8 02 22 22 03 33 33 33 01  Length = 268247 BitCount = 137 ID = 418119499x
  56.001157 1  CF00400x        Rx   d 8 00 00 00 C0 01 00 00 00  Length = 288247 BitCount = 147 ID = 217056256x
  56.001454 1  18FECA00x       Rx   d 8 00 00 00 00 00 00 00 00  Length = 290247 BitCount = 148 ID = 419351040x
  57.001133 1  CF00400x        Rx   d 8 00 00 00 C8 01 00 00 00  Length = 286262 BitCount = 146 ID = 217056256x
  57.001429 1  18FECA00x       Rx   d 8 00 00 00 00 00 00 00 00  Length = 290262 BitCount = 148 ID = 419351040x
  58.001355 1  CF00400x        Rx   d 8 00 00 00 D0 01 00 00 00  Length = 286247 BitCount = 146 ID = 217056256x
  58.001651 1  18FECA00x       Rx   d 8 00 00 00 00 00 00 00 00  Length = 290247 BitCount = 148 ID = 419351040x
  59.001161 1  CF00400x        Rx   d 8 00 00 00 D8 01 00 00 00  Length = 284247 BitCount = 145 ID = 217056256x
  59.001457 1  18FECA00x       Rx   d 8 00 00 00 00 00 00 00 00  Length = 290247 BitCount = 148 ID = 419351040x
  60.001177 1  CF00400x        Rx   d 8 00 00 00 E0 01 00 00 00  Length = 286263 BitCount = 146 ID = 217056256x
  60.001473 1  18FECA00x       Rx   d 8 00 00 00 00 00 00 00 00  Length = 290263 BitCount = 148 ID = 419351040x
