date Wed Feb 23 03:24:08.391 pm 2022
base hex  timestamps absolute
no internal events logged
// version 14.3.0
// Measurement UUID: 44dd4c20-d72d-45f8-a379-f0561608a2f8
   0.000983 1  ErrorFrame	Flags = 0xfffe	CodeExt = 0x20a2	Code = 0x82	ID = 0	DLC = 0	Position = 5	Length = 12000
   0.001306 1  CF00400x        Tx   d 8 00 00 00 00 00 00 00 00  Length = 288263 BitCount = 147 ID = 217056256x
   0.001880 1  18FECA00x       Rx   d 8 97 97 64 00 02 07 00 00  Length = 276263 BitCount = 141 ID = 419351040x
   1.001571 1  CF00400x        Rx   d 8 00 00 00 08 00 00 00 00  Length = 288263 BitCount = 147 ID = 217056256x
   1.001853 1  18FECA00x       Rx   d 8 97 97 64 00 02 07 00 00  Length = 276263 BitCount = 141 ID = 419351040x
   1.002137 1  18ECFF4Bx       Rx   d 8 20 0E 00 02 FF CA FE 00  Length = 278016 BitCount = 142 ID = 418185035x
   1.051715 1  18EBFF4Bx       Rx   d 8 01 00 FF 11 11 11 02 22  Length = 272263 BitCount = 139 ID = 418119499x
   1.101413 1  18EBFF4Bx       Rx   d 8 02 22 22 03 33 33 33 01  Length = 268263 BitCount = 137 ID = 418119499x
   2.001434 1  18FECA00x       Rx   d 8 97 97 64 00 02 07 00 00  Length = 276247 BitCount = 141 ID = 419351040x
   2.001718 1  18ECFF4Bx       Rx   d 8 20 0E 00 02 FF CA FE 00  Length = 278247 BitCount = 142 ID = 418185035x
   2.002015 1  CF00400x        Rx   d 8 00 00 00 10 00 00 00 00  Length = 290247 BitCount = 148 ID = 217056256x
   2.051607 1  18EBFF4Bx       Rx   d 8 01 00 FF 11 11 11 02 22  Length = 272247 BitCount = 139 ID = 418119499x
   2.101447 1  18EBFF4Bx       Rx   d 8 02 22 22 03 33 33 33 01  Length = 268247 BitCount = 137 ID = 418119499x
   3.001210 1  CF00400x        Rx   d 8 00 00 00 18 00 00 00 00  Length = 290247 BitCount = 148 ID = 217056256x
   3.001494 1  18ECFF4Bx       Rx   d 8 20 0E 00 02 FF CA FE 00  Length = 278247 BitCount = 142 ID = 418185035x
   3.001776 1  18FECA00x       Rx   d 8 97 97 64 00 02 07 00 00  Length = 276247 BitCount = 141 ID = 419351040x
   3.051449 1  18EBFF4Bx       Rx   d 8 01 00 FF 11 11 11 02 22  Length = 272247 BitCount = 139 ID = 418119499x
   3.101353 1  18EBFF4Bx       Rx   d 8 02 22 22 03 33 33 33 01  Length = 268247 BitCount = 137 ID = 418119499x
   4.001391 1  18FECA00x       Rx   d 8 97 97 64 00 02 07 00 00  Length = 276263 BitCount = 141 ID = 419351040x
   4.001676 1  18ECFF4Bx       Rx   d 8 20 0E 00 02 FF CA FE 00  Length = 278263 BitCount = 142 ID = 418185035x
   4.001968 1  CF00400x        Rx   d 8 00 00 00 20 00 00 00 00  Length = 286263 BitCount = 146 ID = 217056256x
   4.051520 1  18EBFF4Bx       Rx   d 8 01 00 FF 11 11 11 02 22  Length = 272016 BitCount = 139 ID = 418119499x
   4.101390 1  18EBFF4Bx       Rx   d 8 02 22 22 03 33 33 33 01  Length = 268263 BitCount = 137 ID = 418119499x
   5.001467 1  CF00400x        Rx   d 8 00 00 00 28 00 00 00 00  Length = 290263 BitCount = 148 ID = 217056256x
   5.001751 1  18ECFF4Bx       Rx   d 8 20 0E 00 02 FF CA FE 00  Length = 278016 BitCount = 142 ID = 418185035x
   5.002033 1  18FECA00x       Rx   d 8 97 97 64 00 02 07 00 00  Length = 276263 BitCount = 141 ID = 419351040x
   5.051641 1  18EBFF4Bx       Rx   d 8 01 00 FF 11 11 11 02 22  Length = 272263 BitCount = 139 ID = 418119499x
   5.101358 1  18EBFF4Bx       Rx   d 8 02 22 22 03 33 33 33 01  Length = 268263 BitCount = 137 ID = 418119499x
   6.001102 1  18FECA00x       Rx   d 8 97 97 64 00 02 07 00 00  Length = 276247 BitCount = 141 ID = 419351040x
   6.001387 1  18ECFF4Bx       Rx   d 8 20 0E 00 02 FF CA FE 00  Length = 278247 BitCount = 142 ID = 418185035x
   6.001681 1  CF00400x        Rx   d 8 00 00 00 30 00 00 00 00  Length = 288247 BitCount = 147 ID = 217056256x
   6.051287 1  18EBFF4Bx       Rx   d 8 01 00 FF 11 11 11 02 22  Length = 272000 BitCount = 139 ID = 418119499x
   6.101365 1  18EBFF4Bx       Rx   d 8 02 22 22 03 33 33 33 01  Length = 268247 BitCount = 137 ID = 418119499x
   7.001473 1  CF00400x        Rx   d 8 00 00 00 38 00 00 00 00  Length = 286016 BitCount = 146 ID = 217056256x
   7.001757 1  18ECFF4Bx       Rx   d 8 20 0E 00 02 FF CA FE 00  Length = 278263 BitCount = 142 ID = 418185035x
   7.002040 1  18FECA00x       Rx   d 8 97 97 64 00 02 07 00 00  Length = 276263 BitCount = 141 ID = 419351040x
   7.051628 1  18EBFF4Bx       Rx   d 8 01 00 FF 11 11 11 02 22  Length = 272263 BitCount = 139 ID = 418119499x
   7.101282 1  18EBFF4Bx       Rx   d 8 02 22 22 03 33 33 33 01  Length = 268016 BitCount = 137 ID = 418119499x
   8.001201 1  18FECA00x       Rx   d 8 97 97 64 00 02 07 00 00  Length = 276247 BitCount = 141 ID = 419351040x
   8.001485 1  18ECFF4Bx       Rx   d 8 20 0E 00 02 FF CA FE 00  Length = 278247 BitCount = 142 ID = 418185035x
   8.001777 1  CF00400x        Rx   d 8 00 00 00 40 00 00 00 00  Length = 286247 BitCount = 146 ID = 217056256x
   8.051536 1  18EBFF4Bx       Rx   d 8 01 00 FF 11 11 11 02 22  Length = 272247 BitCount = 139 ID = 418119499x
   8.101492 1  18EBFF4Bx       Rx   d 8 02 22 22 03 33 33 33 01  Length = 268247 BitCount = 137 ID = 418119499x
   9.001329 1  CF00400x        Rx   d 8 00 00 00 48 00 00 00 00  Length = 290247 BitCount = 148 ID = 217056256x
   9.001613 1  18ECFF4Bx       Rx   d 8 20 0E 00 02 FF CA FE 00  Length = 278247 BitCount = 142 ID = 418185035x
   9.001895 1  18FECA00x       Rx   d 8 97 97 64 00 02 07 00 00  Length = 276247 BitCount = 141 ID = 419351040x
   9.051427 1  18EBFF4Bx       Rx   d 8 01 00 FF 11 11 11 02 22  Length = 272247 BitCount = 139 ID = 418119499x
   9.101417 1  18EBFF4Bx       Rx   d 8 02 22 22 03 33 33 33 01  Length = 268000 BitCount = 137 ID = 418119499x
  10.001398 1  18FECA00x       Rx   d 8 97 97 64 00 02 07 00 00  Length = 276247 BitCount = 141 ID = 419351040x
  10.001683 1  18ECFF4Bx       Rx   d 8 20 0E 00 02 FF CA FE 00  Length = 278247 BitCount = 142 ID = 418185035x
  10.001975 1  CF00400x        Rx   d 8 00 00 00 50 00 00 00 00  Length = 286247 BitCount = 146 ID = 217056256x
  10.051377 1  18EBFF4Bx       Rx   d 8 01 00 FF 11 11 11 02 22  Length = 272247 BitCount = 139 ID = 418119499x
  10.101353 1  18EBFF4Bx       Rx   d 8 02 22 22 03 33 33 33 01  Length = 268247 BitCount = 137 ID = 418119499x
  11.001480 1  CF00400x        Rx   d 8 00 00 00 58 00 00 00 00  Length = 286000 BitCount = 146 ID = 217056256x
  11.001764 1  18ECFF4Bx       Rx   d 8 20 0E 00 02 FF CA FE 00  Length = 278247 BitCount = 142 ID = 418185035x
  11.002046 1  18FECA00x       Rx   d 8 97 97 64 00 02 07 00 00  Length = 276247 BitCount = 141 ID = 419351040x
  11.051399 1  18EBFF4Bx       Rx   d 8 01 00 FF 11 11 11 02 22  Length = 272247 BitCount = 139 ID = 418119499x
  11.101371 1  18EBFF4Bx       Rx   d 8 02 22 22 03 33 33 33 01  Length = 268247 BitCount = 137 ID = 418119499x
  12.001388 1  18FECA00x       Rx   d 8 97 97 64 00 02 07 00 00  Length = 276247 BitCount = 141 ID = 419351040x
  12.001672 1  18ECFF4Bx       Rx   d 8 20 0E 00 02 FF CA FE 00  Length = 278247 BitCount = 142 ID = 418185035x
  12.001964 1  CF00400x        Rx   d 8 00 00 00 60 00 00 00 00  Length = 286247 BitCount = 146 ID = 217056256x
  12.051438 1  18EBFF4Bx       Rx   d 8 01 00 FF 11 11 11 02 22  Length = 272247 BitCount = 139 ID = 418119499x
  12.101309 1  18EBFF4Bx       Rx   d 8 02 22 22 03 33 33 33 01  Length = 268247 BitCount = 137 ID = 418119499x
  13.001173 1  CF00400x        Rx   d 8 00 00 00 68 00 00 00 00  Length = 290247 BitCount = 148 ID = 217056256x
  13.001458 1  18ECFF4Bx       Rx   d 8 20 0E 00 02 FF CA FE 00  Length = 278247 BitCount = 142 ID = 418185035x
  13.001740 1  18FECA00x       Rx   d 8 97 97 64 00 02 07 00 00  Length = 276247 BitCount = 141 ID = 419351040x
  13.051298 1  18EBFF4Bx       Rx   d 8 01 00 FF 11 11 11 02 22  Length = 272000 BitCount = 139 ID = 418119499x
  13.101328 1  18EBFF4Bx       Rx   d 8 02 22 22 03 33 33 33 01  Length = 268247 BitCount = 137 ID = 418119499x
  14.001141 1  18FECA00x       Rx   d 8 97 97 64 00 02 07 00 00  Length = 276263 BitCount = 141 ID = 419351040x
  14.001425 1  18ECFF4Bx       Rx   d 8 20 0E 00 02 FF CA FE 00  Length = 278263 BitCount = 142 ID = 418185035x
  14.001719 1  CF00400x        Rx   d 8 00 00 00 70 00 00 00 00  Length = 288263 BitCount = 147 ID = 217056256x
  14.051267 1  18EBFF4Bx       Rx   d 8 01 00 FF 11 11 11 02 22  Length = 272016 BitCount = 139 ID = 418119499x
  14.101300 1  18EBFF4Bx       Rx   d 8 02 22 22 03 33 33 33 01  Length = 268263 BitCount = 137 ID = 418119499x
  15.001178 1  CF00400x        Rx   d 8 00 00 00 78 00 00 00 00  Length = 286247 BitCount = 146 ID = 217056256x
  15.001462 1  18ECFF4Bx       Rx   d 8 20 0E 00 02 FF CA FE 00  Length = 278247 BitCount = 142 ID = 418185035x
  15.001744 1  18FECA00x       Rx   d 8 97 97 64 00 02 07 00 00  Length = 276000 BitCount = 141 ID = 419351040x
  15.051469 1  18EBFF4Bx       Rx   d 8 01 00 FF 11 11 11 02 22  Length = 272247 BitCount = 139 ID = 418119499x
  15.101347 1  18EBFF4Bx       Rx   d 8 02 22 22 03 33 33 33 01  Length = 268000 BitCount = 137 ID = 418119499x
  16.001596 1  18FECA00x       Rx   d 8 97 97 64 00 02 07 00 00  Length = 276247 BitCount = 141 ID = 419351040x
  16.001880 1  18ECFF4Bx       Rx   d 8 20 0E 00 02 FF CA FE 00  Length = 278247 BitCount = 142 ID = 418185035x
  16.002176 1  CF00400x        Rx   d 8 00 00 00 80 00 00 00 00  Length = 290247 BitCount = 148 ID = 217056256x
  16.051384 1  18EBFF4Bx       Rx   d 8 01 00 FF 11 11 11 02 22  Length = 272247 BitCount = 139 ID = 418119499x
  16.101389 1  18EBFF4Bx       Rx   d 8 02 22 22 03 33 33 33 01  Length = 268247 BitCount = 137 ID = 418119499x
  17.001447 1  CF00400x        Rx   d 8 00 00 00 88 00 00 00 00  Length = 288263 BitCount = 147 ID = 217056256x
  17.001731 1  18ECFF4Bx       Rx   d 8 20 0E 00 02 FF CA FE 00  Length = 278263 BitCount = 142 ID = 418185035x
  17.002013 1  18FECA00x       Rx   d 8 97 97 64 00 02 07 00 00  Length = 276263 BitCount = 141 ID = 419351040x
  17.051395 1  18EBFF4Bx       Rx   d 8 01 00 FF 11 11 11 02 22  Length = 272016 BitCount = 139 ID = 418119499x
  17.101378 1  18EBFF4Bx       Rx   d 8 02 22 22 03 33 33 33 01  Length = 268263 BitCount = 137 ID = 418119499x
  18.001560 1  18FECA00x       Rx   d 8 97 97 64 00 02 07 00 00  Length = 276263 BitCount = 141 ID = 419351040x
  18.001844 1  18ECFF4Bx       Rx   d 8 20 0E 00 02 FF CA FE 00  Length = 278016 BitCount = 142 ID = 418185035x
  18.002137 1  CF00400x        Rx   d 8 00 00 00 90 00 00 00 00  Length = 286263 BitCount = 146 ID = 217056256x
  18.051427 1  18EBFF4Bx       Rx   d 8 01 00 FF 11 11 11 02 22  Length = 272263 BitCount = 139 ID = 418119499x
  18.101385 1  18EBFF4Bx       Rx   d 8 02 22 22 03 33 33 33 01  Length = 268263 BitCount = 137 ID = 418119499x
  19.001550 1  CF00400x        Rx   d 8 00 00 00 98 00 00 00 00  Length = 286016 BitCount = 146 ID = 217056256x
  19.001834 1  18ECFF4Bx       Rx   d 8 20 0E 00 02 FF CA FE 00  Length = 278263 BitCount = 142 ID = 418185035x
  19.002116 1  18FECA00x       Rx   d 8 97 97 64 00 02 07 00 00  Length = 276263 BitCount = 141 ID = 419351040x
  19.051636 1  18EBFF4Bx       Rx   d 8 01 00 FF 11 11 11 02 22  Length = 272263 BitCount = 139 ID = 418119499x
  19.101346 1  18EBFF4Bx       Rx   d 8 02 22 22 03 33 33 33 01  Length = 268016 BitCount = 137 ID = 418119499x
  20.001209 1  18FECA00x       Rx   d 8 97 97 64 00 02 07 00 00  Length = 276262 BitCount = 141 ID = 419351040x
  20.001494 1  18ECFF4Bx       Rx   d 8 20 0E 00 02 FF CA FE 00  Length = 278262 BitCount = 142 ID = 418185035x
  20.001788 1  CF00400x        Rx   d 8 00 00 00 A0 00 00 00 00  Length = 288262 BitCount = 147 ID = 217056256x
  20.051812 1  18EBFF4Bx       Rx   d 8 01 00 FF 11 11 11 02 22  Length = 272015 BitCount = 139 ID = 418119499x
  20.101390 1  18EBFF4Bx       Rx   d 8 02 22 22 03 33 33 33 01  Length = 268262 BitCount = 137 ID = 418119499x
  21.001601 1  CF00400x        Rx   d 8 00 00 00 A8 00 00 00 00  Length = 286262 BitCount = 146 ID = 217056256x
  21.001885 1  18ECFF4Bx       Rx   d 8 20 0E 00 02 FF CA FE 00  Length = 278262 BitCount = 142 ID = 418185035x
  21.002167 1  18FECA00x       Rx   d 8 97 97 64 00 02 07 00 00  Length = 276015 BitCount = 141 ID = 419351040x
  21.051703 1  18EBFF4Bx       Rx   d 8 01 00 FF 11 11 11 02 22  Length = 272262 BitCount = 139 ID = 418119499x
  21.101372 1  18EBFF4Bx       Rx   d 8 02 22 22 03 33 33 33 01  Length = 268262 BitCount = 137 ID = 418119499x
  22.001218 1  18FECA00x       Rx   d 8 97 97 64 00 02 07 00 00  Length = 276263 BitCount = 141 ID = 419351040x
  22.001502 1  18ECFF4Bx       Rx   d 8 20 0E 00 02 FF CA FE 00  Length = 278263 BitCount = 142 ID = 418185035x
  22.001797 1  CF00400x        Rx   d 8 00 00 00 B0 00 00 00 00  Length = 288263 BitCount = 147 ID = 217056256x
  22.051579 1  18EBFF4Bx       Rx   d 8 01 00 FF 11 11 11 02 22  Length = 272263 BitCount = 139 ID = 418119499x
  22.101315 1  18EBFF4Bx       Rx   d 8 02 22 22 03 33 33 33 01  Length = 268263 BitCount = 137 ID = 418119499x
  23.001414 1  CF00400x        Rx   d 8 00 00 00 B8 00 00 00 00  Length = 286263 BitCount = 146 ID = 217056256x
  23.001698 1  18ECFF4Bx       Rx   d 8 20 0E 00 02 FF CA FE 00  Length = 278263 BitCount = 142 ID = 418185035x
  23.001981 1  18FECA00x       Rx   d 8 97 97 64 00 02 07 00 00  Length = 276263 BitCount = 141 ID = 419351040x
  23.051655 1  18EBFF4Bx       Rx   d 8 01 00 FF 11 11 11 02 22  Length = 272263 BitCount = 139 ID = 418119499x
  23.101321 1  18EBFF4Bx       Rx   d 8 02 22 22 03 33 33 33 01  Length = 268263 BitCount = 137 ID = 418119499x
  24.001422 1  18FECA00x       Rx   d 8 97 97 64 00 02 07 00 00  Length = 276247 BitCount = 141 ID = 419351040x
  24.001706 1  18ECFF4Bx       Rx   d 8 20 0E 00 02 FF CA FE 00  Length = 278247 BitCount = 142 ID = 418185035x
  24.001998 1  CF00400x        Rx   d 8 00 00 00 C0 00 00 00 00  Length = 286247 BitCount = 146 ID = 217056256x
  24.051625 1  18EBFF4Bx       Rx   d 8 01 00 FF 11 11 11 02 22  Length = 272247 BitCount = 139 ID = 418119499x
  24.101451 1  18EBFF4Bx       Rx   d 8 02 22 22 03 33 33 33 01  Length = 268247 BitCount = 137 ID = 418119499x
  25.001344 1  CF00400x        Rx   d 8 00 00 00 C8 00 00 00 00  Length = 288262 BitCount = 147 ID = 217056256x
  25.001628 1  18ECFF4Bx       Rx   d 8 20 0E 00 02 FF CA FE 00  Length = 278262 BitCount = 142 ID = 418185035x
  25.001910 1  18FECA00x       Rx   d 8 97 97 64 00 02 07 00 00  Length = 276262 BitCount = 141 ID = 419351040x
  25.051668 1  18EBFF4Bx       Rx   d 8 01 00 FF 11 11 11 02 22  Length = 272262 BitCount = 139 ID = 418119499x
  25.101449 1  18EBFF4Bx       Rx   d 8 02 22 22 03 33 33 33 01  Length = 268262 BitCount = 137 ID = 418119499x
  26.001410 1  18FECA00x       Rx   d 8 97 97 64 00 02 07 00 00  Length = 276247 BitCount = 141 ID = 419351040x
  26.001694 1  18ECFF4Bx       Rx   d 8 20 0E 00 02 FF CA FE 00  Length = 278247 BitCount = 142 ID = 418185035x
  26.001986 1  CF00400x        Rx   d 8 00 00 00 D0 00 00 00 00  Length = 286247 BitCount = 146 ID = 217056256x
  26.051632 1  18EBFF4Bx       Rx   d 8 01 00 FF 11 11 11 02 22  Length = 272000 BitCount = 139 ID = 418119499x
  26.101418 1  18EBFF4Bx       Rx   d 8 02 22 22 03 33 33 33 01  Length = 268247 BitCount = 137 ID = 418119499x
  27.001325 1  CF00400x        Rx   d 8 00 00 00 D8 00 00 00 00  Length = 286247 BitCount = 146 ID = 217056256x
  27.001609 1  18ECFF4Bx       Rx   d 8 20 0E 00 02 FF CA FE 00  Length = 278247 BitCount = 142 ID = 418185035x
  27.001891 1  18FECA00x       Rx   d 8 97 97 64 00 02 07 00 00  Length = 276247 BitCount = 141 ID = 419351040x
  27.051563 1  18EBFF4Bx       Rx   d 8 01 00 FF 11 11 11 02 22  Length = 272247 BitCount = 139 ID = 418119499x
  27.101378 1  18EBFF4Bx       Rx   d 8 02 22 22 03 33 33 33 01  Length = 268247 BitCount = 137 ID = 418119499x
  28.001404 1  18FECA00x       Rx   d 8 97 97 64 00 02 07 00 00  Length = 276263 BitCount = 141 ID = 419351040x
  28.001689 1  18ECFF4Bx       Rx   d 8 20 0E 00 02 FF CA FE 00  Length = 278263 BitCount = 142 ID = 418185035x
  28.001983 1  CF00400x        Rx   d 8 00 00 00 E0 00 00 00 00  Length = 288263 BitCount = 147 ID = 217056256x
  28.051363 1  18EBFF4Bx       Rx   d 8 01 00 FF 11 11 11 02 22  Length = 272263 BitCount = 139 ID = 418119499x
  28.101337 1  18EBFF4Bx       Rx   d 8 02 22 22 03 33 33 33 01  Length = 268263 BitCount = 137 ID = 418119499x
  29.001416 1  CF00400x        Rx   d 8 00 00 00 E8 00 00 00 00  Length = 286247 BitCount = 146 ID = 217056256x
  29.001701 1  18ECFF4Bx       Rx   d 8 20 0E 00 02 FF CA FE 00  Length = 278247 BitCount = 142 ID = 418185035x
  29.001983 1  18FECA00x       Rx   d 8 97 97 64 00 02 07 00 00  Length = 276247 BitCount = 141 ID = 419351040x
  29.051329 1  18EBFF4Bx       Rx   d 8 01 00 FF 11 11 11 02 22  Length = 272000 BitCount = 139 ID = 418119499x
  29.101379 1  18EBFF4Bx       Rx   d 8 02 22 22 03 33 33 33 01  Length = 268247 BitCount = 137 ID = 418119499x
  30.001124 1  18FECA00x       Rx   d 8 97 97 64 00 02 07 00 00  Length = 276262 BitCount = 141 ID = 419351040x
  30.001408 1  18ECFF4Bx       Rx   d 8 20 0E 00 02 FF CA FE 00  Length = 278262 BitCount = 142 ID = 418185035x
  30.001700 1  CF00400x        Rx   d 8 00 00 00 F0 00 00 00 00  Length = 286262 BitCount = 146 ID = 217056256x
  30.051271 1  18EBFF4Bx       Rx   d 8 01 00 FF 11 11 11 02 22  Length = 272262 BitCount = 139 ID = 418119499x
  30.101303 1  18EBFF4Bx       Rx   d 8 02 22 22 03 33 33 33 01  Length = 268015 BitCount = 137 ID = 418119499x
  31.001146 1  CF00400x        Rx   d 8 00 00 00 F8 00 00 00 00  Length = 288262 BitCount = 147 ID = 217056256x
  31.001430 1  18ECFF4Bx       Rx   d 8 20 0E 00 02 FF CA FE 00  Length = 278262 BitCount = 142 ID = 418185035x
  31.001712 1  18FECA00x       Rx   d 8 97 97 64 00 02 07 00 00  Length = 276262 BitCount = 141 ID = 419351040x
  31.051278 1  18EBFF4Bx       Rx   d 8 01 00 FF 11 11 11 02 22  Length = 272262 BitCount = 139 ID = 418119499x
  31.101325 1  18EBFF4Bx       Rx   d 8 02 22 22 03 33 33 33 01  Length = 268262 BitCount = 137 ID = 418119499x
  32.001097 1  18FECA00x       Rx   d 8 97 97 64 00 02 07 00 00  Length = 276247 BitCount = 141 ID = 419351040x
  32.001382 1  18ECFF4Bx       Rx   d 8 20 0E 00 02 FF CA FE 00  Length = 278247 BitCount = 142 ID = 418185035x
  32.001676 1  CF00400x        Rx   d 8 00 00 00 00 01 00 00 00  Length = 288247 BitCount = 147 ID = 217056256x
  32.051320 1  18EBFF4Bx       Rx   d 8 01 00 FF 11 11 11 02 22  Length = 272247 BitCount = 139 ID = 418119499x
  32.101338 1  18EBFF4Bx       Rx   d 8 02 22 22 03 33 33 33 01  Length = 268247 BitCount = 137 ID = 418119499x
  33.001491 1  CF00400x        Rx   d 8 00 00 00 08 01 00 00 00  Length = 288263 BitCount = 147 ID = 217056256x
  33.001776 1  18ECFF4Bx       Rx   d 8 20 0E 00 02 FF CA FE 00  Length = 278263 BitCount = 142 ID = 418185035x
  33.002058 1  18FECA00x       Rx   d 8 97 97 64 00 02 07 00 00  Length = 276263 BitCount = 141 ID = 419351040x
  33.051396 1  18EBFF4Bx       Rx   d 8 01 00 FF 11 11 11 02 22  Length = 272263 BitCount = 139 ID = 418119499x
  33.101290 1  18EBFF4Bx       Rx   d 8 02 22 22 03 33 33 33 01  Length = 268263 BitCount = 137 ID = 418119499x
  34.001353 1  18FECA00x       Rx   d 8 97 97 64 00 02 07 00 00  Length = 276247 BitCount = 141 ID = 419351040x
  34.001637 1  18ECFF4Bx       Rx   d 8 20 0E 00 02 FF CA FE 00  Length = 278247 BitCount = 142 ID = 418185035x
  34.001932 1  CF00400x        Rx   d 8 00 00 00 10 01 00 00 00  Length = 288247 BitCount = 147 ID = 217056256x
  34.051628 1  18EBFF4Bx       Rx   d 8 01 00 FF 11 11 11 02 22  Length = 272247 BitCount = 139 ID = 418119499x
  34.101344 1  18EBFF4Bx       Rx   d 8 02 22 22 03 33 33 33 01  Length = 268247 BitCount = 137 ID = 418119499x
  35.001405 1  CF00400x        Rx   d 8 00 00 00 18 01 00 00 00  Length = 286263 BitCount = 146 ID = 217056256x
  35.001689 1  18ECFF4Bx       Rx   d 8 20 0E 00 02 FF CA FE 00  Length = 278016 BitCount = 142 ID = 418185035x
  35.001971 1  18FECA00x       Rx   d 8 97 97 64 00 02 07 00 00  Length = 276263 BitCount = 141 ID = 419351040x
  35.051568 1  18EBFF4Bx       Rx   d 8 01 00 FF 11 11 11 02 22  Length = 272263 BitCount = 139 ID = 418119499x
  35.101290 1  18EBFF4Bx       Rx   d 8 02 22 22 03 33 33 33 01  Length = 268263 BitCount = 137 ID = 418119499x
  36.001427 1  18FECA00x       Rx   d 8 97 97 64 00 02 07 00 00  Length = 276247 BitCount = 141 ID = 419351040x
  36.001711 1  18ECFF4Bx       Rx   d 8 20 0E 00 02 FF CA FE 00  Length = 278247 BitCount = 142 ID = 418185035x
  36.002001 1  CF00400x        Rx   d 8 00 00 00 20 01 00 00 00  Length = 284247 BitCount = 145 ID = 217056256x
  36.051591 1  18EBFF4Bx       Rx   d 8 01 00 FF 11 11 11 02 22  Length = 272247 BitCount = 139 ID = 418119499x
  36.101324 1  18EBFF4Bx       Rx   d 8 02 22 22 03 33 33 33 01  Length = 268247 BitCount = 137 ID = 418119499x
  37.001334 1  CF00400x        Rx   d 8 00 00 00 28 01 00 00 00  Length = 284247 BitCount = 145 ID = 217056256x
  37.001618 1  18ECFF4Bx       Rx   d 8 20 0E 00 02 FF CA FE 00  Length = 278247 BitCount = 142 ID = 418185035x
  37.001900 1  18FECA00x       Rx   d 8 97 97 64 00 02 07 00 00  Length = 276247 BitCount = 141 ID = 419351040x
  37.051809 1  18EBFF4Bx       Rx   d 8 01 00 FF 11 11 11 02 22  Length = 272247 BitCount = 139 ID = 418119499x
  37.101275 1  18EBFF4Bx       Rx   d 8 02 22 22 03 33 33 33 01  Length = 268247 BitCount = 137 ID = 418119499x
  38.001402 1  18FECA00x       Rx   d 8 97 97 64 00 02 07 00 00  Length = 276263 BitCount = 141 ID = 419351040x
  38.001686 1  18ECFF4Bx       Rx   d 8 20 0E 00 02 FF CA FE 00  Length = 278263 BitCount = 142 ID = 418185035x
  38.001980 1  CF00400x        Rx   d 8 00 00 00 30 01 00 00 00  Length = 288016 BitCount = 147 ID = 217056256x
  38.051534 1  18EBFF4Bx       Rx   d 8 01 00 FF 11 11 11 02 22  Length = 272263 BitCount = 139 ID = 418119499x
  38.101336 1  18EBFF4Bx       Rx   d 8 02 22 22 03 33 33 33 01  Length = 268263 BitCount = 137 ID = 418119499x
  39.001623 1  CF00400x        Rx   d 8 00 00 00 38 01 00 00 00  Length = 286262 BitCount = 146 ID = 217056256x
  39.001908 1  18ECFF4Bx       Rx   d 8 20 0E 00 02 FF CA FE 00  Length = 278262 BitCount = 142 ID = 418185035x
  39.002190 1  18FECA00x       Rx   d 8 97 97 64 00 02 07 00 00  Length = 276262 BitCount = 141 ID = 419351040x
  39.051330 1  18EBFF4Bx       Rx   d 8 01 00 FF 11 11 11 02 22  Length = 272262 BitCount = 139 ID = 418119499x
  39.101364 1  18EBFF4Bx       Rx   d 8 02 22 22 03 33 33 33 01  Length = 268262 BitCount = 137 ID = 418119499x
  40.001575 1  18FECA00x       Rx   d 8 97 97 64 00 02 07 00 00  Length = 276247 BitCount = 141 ID = 419351040x
  40.001859 1  18ECFF4Bx       Rx   d 8 20 0E 00 02 FF CA FE 00  Length = 278247 BitCount = 142 ID = 418185035x
  40.002152 1  CF00400x        Rx   d 8 00 00 00 40 01 00 00 00  Length = 286247 BitCount = 146 ID = 217056256x
  40.051368 1  18EBFF4Bx       Rx   d 8 01 00 FF 11 11 11 02 22  Length = 272247 BitCount = 139 ID = 418119499x
  40.101294 1  18EBFF4Bx       Rx   d 8 02 22 22 03 33 33 33 01  Length = 268000 BitCount = 137 ID = 418119499x
  41.001623 1  CF00400x        Rx   d 8 00 00 00 48 01 00 00 00  Length = 290263 BitCount = 148 ID = 217056256x
  41.001907 1  18ECFF4Bx       Rx   d 8 20 0E 00 02 FF CA FE 00  Length = 278263 BitCount = 142 ID = 418185035x
  41.002190 1  18FECA00x       Rx   d 8 97 97 64 00 02 07 00 00  Length = 276263 BitCount = 141 ID = 419351040x
