date Wed Mar 8 11:24:14.471 am 2023
base hex  timestamps absolute
no internal events logged
// version 16.2.0
// Measurement UUID: 12a13eda-de4b-4e39-b7f8-851955c87e8c
   0.001623 1  CF00400x        Rx   d 8 00 00 00 00 00 00 00 00  Length = 288247 BitCount = 147 ID = 217056256x
   0.500855 1  18FECA00x       Rx   d 8 97 97 00 00 02 07 00 00  Length = 278262 BitCount = 142 ID = 419351040x
   1.000887 1  18FECA4Bx       Rx   d 8 00 00 00 00 00 00 00 00  Length = 284263 BitCount = 145 ID = 419351115x
   1.001182 1  CF00400x        Rx   d 8 00 00 00 08 00 00 00 00  Length = 288263 BitCount = 147 ID = 217056256x
   1.500849 1  18FECA00x       Rx   d 8 97 97 00 00 02 07 00 00  Length = 278247 BitCount = 142 ID = 419351040x
   2.000882 1  18FECA4Bx       Rx   d 8 00 00 00 00 00 00 00 00  Length = 284247 BitCount = 145 ID = 419351115x
   2.001178 1  CF00400x        Rx   d 8 00 00 00 10 00 00 00 00  Length = 290247 BitCount = 148 ID = 217056256x
   2.500859 1  18FECA00x       Rx   d 8 97 97 00 00 02 07 00 00  Length = 278263 BitCount = 142 ID = 419351040x
   3.000630 1  18FECA4Bx       Rx   d 8 00 00 00 00 00 00 00 00  Length = 284263 BitCount = 145 ID = 419351115x
   3.000926 1  CF00400x        Rx   d 8 00 00 00 18 00 00 00 00  Length = 290263 BitCount = 148 ID = 217056256x
   3.500836 1  18FECA00x       Rx   d 8 97 97 00 00 02 07 00 00  Length = 278247 BitCount = 142 ID = 419351040x
   4.000842 1  18FECA4Bx       Rx   d 8 00 00 00 00 00 00 00 00  Length = 284247 BitCount = 145 ID = 419351115x
   4.001134 1  CF00400x        Rx   d 8 00 00 00 20 00 00 00 00  Length = 286247 BitCount = 146 ID = 217056256x
   4.500688 1  18FECA00x       Rx   d 8 97 97 00 00 02 07 00 00  Length = 278263 BitCount = 142 ID = 419351040x
   5.000842 1  18FECA4Bx       Rx   d 8 00 00 00 00 00 00 00 00  Length = 284263 BitCount = 145 ID = 419351115x
   5.001138 1  CF00400x        Rx   d 8 00 00 00 28 00 00 00 00  Length = 290263 BitCount = 148 ID = 217056256x
   5.500834 1  18FECA00x       Rx   d 8 97 97 64 00 02 07 00 00  Length = 276247 BitCount = 141 ID = 419351040x
   6.000852 1  18FECA4Bx       Rx   d 8 00 00 00 00 00 00 00 00  Length = 284247 BitCount = 145 ID = 419351115x
   6.001146 1  CF00400x        Rx   d 8 00 00 00 30 00 00 00 00  Length = 288247 BitCount = 147 ID = 217056256x
   6.500620 1  18FECA00x       Rx   d 8 97 97 64 00 02 07 00 00  Length = 276247 BitCount = 141 ID = 419351040x
   7.000572 1  18FECA4Bx       Rx   d 8 00 00 00 00 00 00 00 00  Length = 284247 BitCount = 145 ID = 419351115x
   7.000864 1  CF00400x        Rx   d 8 00 00 00 38 00 00 00 00  Length = 286247 BitCount = 146 ID = 217056256x
   7.500572 1  18FECA00x       Rx   d 8 97 97 64 00 02 07 00 00  Length = 276247 BitCount = 141 ID = 419351040x
   8.000594 1  18FECA4Bx       Rx   d 8 00 00 00 00 00 00 00 00  Length = 284247 BitCount = 145 ID = 419351115x
   8.000886 1  CF00400x        Rx   d 8 00 00 00 40 00 00 00 00  Length = 286247 BitCount = 146 ID = 217056256x
   8.500604 1  18FECA00x       Rx   d 8 97 97 64 00 02 07 00 00  Length = 276247 BitCount = 141 ID = 419351040x
   9.000810 1  18FECA4Bx       Rx   d 8 00 00 00 00 00 00 00 00  Length = 284247 BitCount = 145 ID = 419351115x
   9.001106 1  CF00400x        Rx   d 8 00 00 00 48 00 00 00 00  Length = 290247 BitCount = 148 ID = 217056256x
   9.500833 1  18FECA00x       Rx   d 8 97 97 64 00 02 07 00 00  Length = 276263 BitCount = 141 ID = 419351040x
  10.000606 1  18FECA4Bx       Rx   d 8 00 00 00 00 00 00 00 00  Length = 284263 BitCount = 145 ID = 419351115x
  10.000898 1  CF00400x        Rx   d 8 00 00 00 50 00 00 00 00  Length = 286263 BitCount = 146 ID = 217056256x
  10.500833 1  18FECA00x       Rx   d 8 97 97 64 00 02 07 00 00  Length = 276262 BitCount = 141 ID = 419351040x
  11.000588 1  18ECFF4Bx       Rx   d 8 20 0E 00 02 FF CA FE 00  Length = 278247 BitCount = 142 ID = 418185035x
  11.000880 1  CF00400x        Rx   d 8 00 00 00 58 00 00 00 00  Length = 286247 BitCount = 146 ID = 217056256x
  11.050766 1  18EBFF4Bx       Rx   d 8 01 00 FF 11 11 11 02 22  Length = 272247 BitCount = 139 ID = 418119499x
  11.100761 1  18EBFF4Bx       Rx   d 8 02 22 22 03 33 33 33 01  Length = 268247 BitCount = 137 ID = 418119499x
  11.500643 1  18FECA00x       Rx   d 8 97 97 64 00 02 07 00 00  Length = 276247 BitCount = 141 ID = 419351040x
  12.000589 1  18ECFF4Bx       Rx   d 8 20 0E 00 02 FF CA FE 00  Length = 278247 BitCount = 142 ID = 418185035x
  12.000882 1  CF00400x        Rx   d 8 00 00 00 60 00 00 00 00  Length = 286247 BitCount = 146 ID = 217056256x
  12.050778 1  18EBFF4Bx       Rx   d 8 01 00 FF 11 11 11 02 22  Length = 272247 BitCount = 139 ID = 418119499x
  12.100756 1  18EBFF4Bx       Rx   d 8 02 22 22 03 33 33 33 01  Length = 268247 BitCount = 137 ID = 418119499x
  12.500596 1  18FECA00x       Rx   d 8 97 97 64 00 02 07 00 00  Length = 276263 BitCount = 141 ID = 419351040x
  13.000597 1  18ECFF4Bx       Rx   d 8 20 0E 00 02 FF CA FE 00  Length = 278263 BitCount = 142 ID = 418185035x
  13.000893 1  CF00400x        Rx   d 8 00 00 00 68 00 00 00 00  Length = 290263 BitCount = 148 ID = 217056256x
  13.050765 1  18EBFF4Bx       Rx   d 8 01 00 FF 11 11 11 02 22  Length = 272263 BitCount = 139 ID = 418119499x
  13.100741 1  18EBFF4Bx       Rx   d 8 02 22 22 03 33 33 33 01  Length = 268263 BitCount = 137 ID = 418119499x
  13.500622 1  18FECA00x       Rx   d 8 97 97 64 00 02 07 00 00  Length = 276262 BitCount = 141 ID = 419351040x
  14.000608 1  18ECFF4Bx       Rx   d 8 20 0E 00 02 FF CA FE 00  Length = 278262 BitCount = 142 ID = 418185035x
  14.000902 1  CF00400x        Rx   d 8 00 00 00 70 00 00 00 00  Length = 288262 BitCount = 147 ID = 217056256x
  14.050778 1  18EBFF4Bx       Rx   d 8 01 00 FF 11 11 11 02 22  Length = 272262 BitCount = 139 ID = 418119499x
  14.100743 1  18EBFF4Bx       Rx   d 8 02 22 22 03 33 33 33 01  Length = 268262 BitCount = 137 ID = 418119499x
  14.500723 1  18FECA00x       Rx   d 8 97 97 64 00 02 07 00 00  Length = 276247 BitCount = 141 ID = 419351040x
  15.000593 1  18ECFF4Bx       Rx   d 8 20 0E 00 02 FF CA FE 00  Length = 278247 BitCount = 142 ID = 418185035x
  15.000885 1  CF00400x        Rx   d 8 00 00 00 78 00 00 00 00  Length = 286247 BitCount = 146 ID = 217056256x
  15.050722 1  18EBFF4Bx       Rx   d 8 01 00 FF 11 11 11 02 22  Length = 272247 BitCount = 139 ID = 418119499x
  15.100750 1  18EBFF4Bx       Rx   d 8 02 22 22 03 33 33 33 01  Length = 268247 BitCount = 137 ID = 418119499x
  15.500624 1  18FECA00x       Rx   d 8 97 97 64 00 02 07 00 00  Length = 276263 BitCount = 141 ID = 419351040x
  16.000602 1  18ECFF4Bx       Rx   d 8 20 0E 00 02 FF CA FE 00  Length = 278262 BitCount = 142 ID = 418185035x
  16.000898 1  CF00400x        Rx   d 8 00 00 00 80 00 00 00 00  Length = 290262 BitCount = 148 ID = 217056256x
  16.050559 1  18EBFF4Bx       Rx   d 8 01 00 FF 11 11 11 02 22  Length = 272262 BitCount = 139 ID = 418119499x
  16.100745 1  18EBFF4Bx       Rx   d 8 02 22 22 03 33 33 33 01  Length = 268262 BitCount = 137 ID = 418119499x
  16.500709 1  18FECA00x       Rx   d 8 97 97 64 00 02 07 00 00  Length = 276247 BitCount = 141 ID = 419351040x
  17.000577 1  18ECFF4Bx       Rx   d 8 20 0E 00 02 FF CA FE 00  Length = 278247 BitCount = 142 ID = 418185035x
  17.000871 1  CF00400x        Rx   d 8 00 00 00 88 00 00 00 00  Length = 288247 BitCount = 147 ID = 217056256x
  17.050782 1  18EBFF4Bx       Rx   d 8 01 00 FF 11 11 11 02 22  Length = 272247 BitCount = 139 ID = 418119499x
  17.100678 1  18EBFF4Bx       Rx   d 8 02 22 22 03 33 33 33 01  Length = 268247 BitCount = 137 ID = 418119499x
  17.500654 1  18FECA00x       Rx   d 8 97 97 64 00 02 07 00 00  Length = 276263 BitCount = 141 ID = 419351040x
  18.000652 1  18ECFF4Bx       Rx   d 8 20 0E 00 02 FF CA FE 00  Length = 278263 BitCount = 142 ID = 418185035x
  18.000944 1  CF00400x        Rx   d 8 00 00 00 90 00 00 00 00  Length = 286263 BitCount = 146 ID = 217056256x
  18.050751 1  18EBFF4Bx       Rx   d 8 01 00 FF 11 11 11 02 22  Length = 272263 BitCount = 139 ID = 418119499x
  18.100751 1  18EBFF4Bx       Rx   d 8 02 22 22 03 33 33 33 01  Length = 268263 BitCount = 137 ID = 418119499x
  18.500621 1  18FECA00x       Rx   d 8 97 97 64 00 02 07 00 00  Length = 276263 BitCount = 141 ID = 419351040x
  19.000691 1  18ECFF4Bx       Rx   d 8 20 0E 00 02 FF CA FE 00  Length = 278263 BitCount = 142 ID = 418185035x
  19.000983 1  CF00400x        Rx   d 8 00 00 00 98 00 00 00 00  Length = 286263 BitCount = 146 ID = 217056256x
  19.050784 1  18EBFF4Bx       Rx   d 8 01 00 FF 11 11 11 02 22  Length = 272263 BitCount = 139 ID = 418119499x
  19.100748 1  18EBFF4Bx       Rx   d 8 02 22 22 03 33 33 33 01  Length = 268263 BitCount = 137 ID = 418119499x
  19.500668 1  18FECA00x       Rx   d 8 97 97 64 00 02 07 00 00  Length = 276263 BitCount = 141 ID = 419351040x
  20.000610 1  18ECFF4Bx       Rx   d 8 20 0E 00 02 FF CA FE 00  Length = 278263 BitCount = 142 ID = 418185035x
  20.000904 1  CF00400x        Rx   d 8 00 00 00 A0 00 00 00 00  Length = 288263 BitCount = 147 ID = 217056256x
  20.050776 1  18EBFF4Bx       Rx   d 8 01 00 FF 11 11 11 02 22  Length = 272263 BitCount = 139 ID = 418119499x
  20.100747 1  18EBFF4Bx       Rx   d 8 02 22 22 03 33 33 33 01  Length = 268263 BitCount = 137 ID = 418119499x
  20.500646 1  18FECA00x       Rx   d 8 97 97 64 00 02 07 00 00  Length = 276263 BitCount = 141 ID = 419351040x
  21.000587 1  18ECFF4Bx       Rx   d 8 20 0E 00 02 FF CA FE 00  Length = 278262 BitCount = 142 ID = 418185035x
  21.000879 1  CF00400x        Rx   d 8 00 00 00 A8 00 00 00 00  Length = 286262 BitCount = 146 ID = 217056256x
  21.050770 1  18EBFF4Bx       Rx   d 8 01 00 FF 11 11 11 02 22  Length = 272262 BitCount = 139 ID = 418119499x
  21.100750 1  18EBFF4Bx       Rx   d 8 02 22 22 03 33 33 33 01  Length = 268262 BitCount = 137 ID = 418119499x
  21.500665 1  18FECA00x       Rx   d 8 97 97 64 00 02 07 00 00  Length = 276247 BitCount = 141 ID = 419351040x
  22.000596 1  18ECFF4Bx       Rx   d 8 20 0A 00 02 FF CA FE 00  Length = 276247 BitCount = 141 ID = 418185035x
  22.000890 1  CF00400x        Rx   d 8 00 00 00 B0 00 00 00 00  Length = 288247 BitCount = 147 ID = 217056256x
  22.050770 1  18EBFF4Bx       Rx   d 8 01 00 FF 1A F0 F3 01 0F  Length = 272247 BitCount = 139 ID = 418119499x
  22.100750 1  18EBFF4Bx       Rx   d 8 02 F0 F3 01 FF FF FF FF  Length = 276247 BitCount = 141 ID = 418119499x
  22.500588 1  18FECA00x       Rx   d 8 97 97 64 00 02 07 00 00  Length = 276247 BitCount = 141 ID = 419351040x
  23.000622 1  18ECFF4Bx       Rx   d 8 20 0A 00 02 FF CA FE 00  Length = 276247 BitCount = 141 ID = 418185035x
  23.000914 1  CF00400x        Rx   d 8 00 00 00 B8 00 00 00 00  Length = 286247 BitCount = 146 ID = 217056256x
  23.050769 1  18EBFF4Bx       Rx   d 8 01 00 FF 1A F0 F3 01 0F  Length = 272247 BitCount = 139 ID = 418119499x
  23.100735 1  18EBFF4Bx       Rx   d 8 02 F0 F3 01 FF FF FF FF  Length = 276247 BitCount = 141 ID = 418119499x
  23.500608 1  18FECA00x       Rx   d 8 97 97 64 00 02 07 00 00  Length = 276263 BitCount = 141 ID = 419351040x
  24.000595 1  18ECFF4Bx       Rx   d 8 20 0A 00 02 FF CA FE 00  Length = 276263 BitCount = 141 ID = 418185035x
  24.000887 1  CF00400x        Rx   d 8 00 00 00 C0 00 00 00 00  Length = 286263 BitCount = 146 ID = 217056256x
  24.050553 1  18EBFF4Bx       Rx   d 8 01 00 FF 1A F0 F3 01 0F  Length = 272263 BitCount = 139 ID = 418119499x
  24.100551 1  18EBFF4Bx       Rx   d 8 02 F0 F3 01 FF FF FF FF  Length = 276263 BitCount = 141 ID = 418119499x
  24.500589 1  18FECA00x       Rx   d 8 97 97 64 00 02 07 00 00  Length = 276247 BitCount = 141 ID = 419351040x
  25.000597 1  18ECFF4Bx       Rx   d 8 20 0A 00 02 FF CA FE 00  Length = 276247 BitCount = 141 ID = 418185035x
  25.000891 1  CF00400x        Rx   d 8 00 00 00 C8 00 00 00 00  Length = 288247 BitCount = 147 ID = 217056256x
  25.050573 1  18EBFF4Bx       Rx   d 8 01 00 FF 1A F0 F3 01 0F  Length = 272247 BitCount = 139 ID = 418119499x
  25.100514 1  18EBFF4Bx       Rx   d 8 02 F0 F3 01 FF FF FF FF  Length = 276247 BitCount = 141 ID = 418119499x
  25.500599 1  18FECA00x       Rx   d 8 97 97 64 00 02 07 00 00  Length = 276262 BitCount = 141 ID = 419351040x
  26.000785 1  18ECFF4Bx       Rx   d 8 20 0A 00 02 FF CA FE 00  Length = 276263 BitCount = 141 ID = 418185035x
  26.001077 1  CF00400x        Rx   d 8 00 00 00 D0 00 00 00 00  Length = 286263 BitCount = 146 ID = 217056256x
  26.050779 1  18EBFF4Bx       Rx   d 8 01 00 FF 1A F0 F3 01 0F  Length = 272263 BitCount = 139 ID = 418119499x
  26.100760 1  18EBFF4Bx       Rx   d 8 02 F0 F3 01 FF FF FF FF  Length = 276263 BitCount = 141 ID = 418119499x
  26.500645 1  18FECA00x       Rx   d 8 97 97 64 00 02 07 00 00  Length = 276263 BitCount = 141 ID = 419351040x
  27.000607 1  18ECFF4Bx       Rx   d 8 20 0A 00 02 FF CA FE 00  Length = 276263 BitCount = 141 ID = 418185035x
  27.000899 1  CF00400x        Rx   d 8 00 00 00 D8 00 00 00 00  Length = 286263 BitCount = 146 ID = 217056256x
  27.050763 1  18EBFF4Bx       Rx   d 8 01 00 FF 1A F0 F3 01 0F  Length = 272263 BitCount = 139 ID = 418119499x
  27.100778 1  18EBFF4Bx       Rx   d 8 02 F0 F3 01 FF FF FF FF  Length = 276263 BitCount = 141 ID = 418119499x
  27.500621 1  18FECA00x       Rx   d 8 97 97 64 00 02 07 00 00  Length = 276247 BitCount = 141 ID = 419351040x
  28.000609 1  18ECFF4Bx       Rx   d 8 20 0A 00 02 FF CA FE 00  Length = 276247 BitCount = 141 ID = 418185035x
  28.000903 1  CF00400x        Rx   d 8 00 00 00 E0 00 00 00 00  Length = 288247 BitCount = 147 ID = 217056256x
  28.050600 1  18EBFF4Bx       Rx   d 8 01 00 FF 1A F0 F3 01 0F  Length = 272247 BitCount = 139 ID = 418119499x
  28.100592 1  18EBFF4Bx       Rx   d 8 02 F0 F3 01 FF FF FF FF  Length = 276247 BitCount = 141 ID = 418119499x
  28.500631 1  18FECA00x       Rx   d 8 97 97 64 00 02 07 00 00  Length = 276247 BitCount = 141 ID = 419351040x
  29.000579 1  18ECFF4Bx       Rx   d 8 20 0A 00 02 FF CA FE 00  Length = 276247 BitCount = 141 ID = 418185035x
  29.000871 1  CF00400x        Rx   d 8 00 00 00 E8 00 00 00 00  Length = 286247 BitCount = 146 ID = 217056256x
  29.050766 1  18EBFF4Bx       Rx   d 8 01 00 FF 1A F0 F3 01 0F  Length = 272247 BitCount = 139 ID = 418119499x
  29.100750 1  18EBFF4Bx       Rx   d 8 02 F0 F3 01 FF FF FF FF  Length = 276247 BitCount = 141 ID = 418119499x
  29.500605 1  18FECA00x       Rx   d 8 97 97 64 00 02 07 00 00  Length = 276247 BitCount = 141 ID = 419351040x
  30.000635 1  CF00400x        Rx   d 8 00 00 00 F0 00 00 00 00  Length = 286247 BitCount = 146 ID = 217056256x
  30.000925 1  18FECA4Bx       Rx   d 8 00 00 00 00 00 00 00 00  Length = 284247 BitCount = 145 ID = 419351115x
  30.500629 1  18FECA00x       Rx   d 8 97 97 64 00 02 07 00 00  Length = 276247 BitCount = 141 ID = 419351040x
  31.000602 1  CF00400x        Rx   d 8 00 00 00 F8 00 00 00 00  Length = 288263 BitCount = 147 ID = 217056256x
  31.000892 1  18FECA4Bx       Rx   d 8 00 00 00 00 00 00 00 00  Length = 284263 BitCount = 145 ID = 419351115x
  31.500591 1  18FECA00x       Rx   d 8 97 97 64 00 02 07 00 00  Length = 276247 BitCount = 141 ID = 419351040x
  32.000636 1  CF00400x        Rx   d 8 00 00 00 00 01 00 00 00  Length = 288247 BitCount = 147 ID = 217056256x
  32.000926 1  18FECA4Bx       Rx   d 8 00 00 00 00 00 00 00 00  Length = 284247 BitCount = 145 ID = 419351115x
  32.500655 1  18FECA00x       Rx   d 8 97 97 64 00 02 07 00 00  Length = 276263 BitCount = 141 ID = 419351040x
  33.000615 1  18FECA4Bx       Rx   d 8 00 00 00 00 00 00 00 00  Length = 284263 BitCount = 145 ID = 419351115x
  33.000910 1  CF00400x        Rx   d 8 00 00 00 08 01 00 00 00  Length = 288263 BitCount = 147 ID = 217056256x
  33.500587 1  18FECA00x       Rx   d 8 97 97 64 00 02 07 00 00  Length = 276262 BitCount = 141 ID = 419351040x
  34.000589 1  18FECA4Bx       Rx   d 8 00 00 00 00 00 00 00 00  Length = 284262 BitCount = 145 ID = 419351115x
  34.000883 1  CF00400x        Rx   d 8 00 00 00 10 01 00 00 00  Length = 288262 BitCount = 147 ID = 217056256x
  34.500655 1  18FECA00x       Rx   d 8 97 97 64 00 02 07 00 00  Length = 276247 BitCount = 141 ID = 419351040x
  35.000597 1  18FECA4Bx       Rx   d 8 00 00 00 00 00 00 00 00  Length = 284247 BitCount = 145 ID = 419351115x
  35.000889 1  CF00400x        Rx   d 8 00 00 00 18 01 00 00 00  Length = 286247 BitCount = 146 ID = 217056256x
  35.500594 1  18FECA00x       Rx   d 8 97 97 64 00 02 07 00 00  Length = 276262 BitCount = 141 ID = 419351040x
  36.000662 1  18FECA4Bx       Rx   d 8 00 00 00 00 00 00 00 00  Length = 284262 BitCount = 145 ID = 419351115x
  36.000952 1  CF00400x        Rx   d 8 00 00 00 20 01 00 00 00  Length = 284262 BitCount = 145 ID = 217056256x
  36.500617 1  18FECA00x       Rx   d 8 97 97 64 00 02 07 00 00  Length = 276247 BitCount = 141 ID = 419351040x
  37.000585 1  18FECA4Bx       Rx   d 8 00 00 00 00 00 00 00 00  Length = 284247 BitCount = 145 ID = 419351115x
  37.000876 1  CF00400x        Rx   d 8 00 00 00 28 01 00 00 00  Length = 284247 BitCount = 145 ID = 217056256x
  37.500627 1  18FECA00x       Rx   d 8 97 97 64 00 02 07 00 00  Length = 276263 BitCount = 141 ID = 419351040x
  38.000663 1  18FECA4Bx       Rx   d 8 00 00 00 00 00 00 00 00  Length = 284263 BitCount = 145 ID = 419351115x
  38.000957 1  CF00400x        Rx   d 8 00 00 00 30 01 00 00 00  Length = 288263 BitCount = 147 ID = 217056256x
  38.500648 1  18FECA00x       Rx   d 8 97 97 64 00 02 07 00 00  Length = 276247 BitCount = 141 ID = 419351040x
  39.000600 1  18FECA4Bx       Rx   d 8 00 00 00 00 00 00 00 00  Length = 284247 BitCount = 145 ID = 419351115x
  39.000892 1  CF00400x        Rx   d 8 00 00 00 38 01 00 00 00  Length = 286247 BitCount = 146 ID = 217056256x
  39.500619 1  18FECA00x       Rx   d 8 97 97 64 00 02 07 00 00  Length = 276247 BitCount = 141 ID = 419351040x
  40.000629 1  18FECA4Bx       Rx   d 8 00 00 00 00 00 00 00 00  Length = 284247 BitCount = 145 ID = 419351115x
  40.000922 1  CF00400x        Rx   d 8 00 00 00 40 01 00 00 00  Length = 286247 BitCount = 146 ID = 217056256x
  40.500584 1  18FECA00x       Rx   d 8 97 97 64 00 02 07 00 00  Length = 276262 BitCount = 141 ID = 419351040x
  41.000581 1  18FECA4Bx       Rx   d 8 00 00 00 00 00 00 00 00  Length = 284247 BitCount = 145 ID = 419351115x
  41.000878 1  CF00400x        Rx   d 8 00 00 00 48 01 00 00 00  Length = 290247 BitCount = 148 ID = 217056256x
  41.500606 1  18FECA00x       Rx   d 8 97 97 00 00 02 07 00 00  Length = 278262 BitCount = 142 ID = 419351040x
  42.000608 1  18FECA4Bx       Rx   d 8 00 00 00 00 00 00 00 00  Length = 284262 BitCount = 145 ID = 419351115x
  42.000899 1  CF00400x        Rx   d 8 00 00 00 50 01 00 00 00  Length = 284262 BitCount = 145 ID = 217056256x
  42.500569 1  18FECA00x       Rx   d 8 97 97 00 00 02 07 00 00  Length = 278247 BitCount = 142 ID = 419351040x
  43.000595 1  CF00400x        Rx   d 8 00 00 00 58 01 00 00 00  Length = 284247 BitCount = 145 ID = 217056256x
  43.000886 1  18FECA4Bx       Rx   d 8 00 00 00 00 00 00 00 00  Length = 284247 BitCount = 145 ID = 419351115x
  43.500620 1  18FECA00x       Rx   d 8 97 97 00 00 02 07 00 00  Length = 278247 BitCount = 142 ID = 419351040x
  44.000596 1  18FECA4Bx       Rx   d 8 00 00 00 00 00 00 00 00  Length = 284247 BitCount = 145 ID = 419351115x
  44.000887 1  CF00400x        Rx   d 8 00 00 00 60 01 00 00 00  Length = 284247 BitCount = 145 ID = 217056256x
  44.500599 1  18FECA00x       Rx   d 8 97 97 00 00 02 07 00 00  Length = 278247 BitCount = 142 ID = 419351040x
  45.000625 1  18FECA4Bx       Rx   d 8 00 00 00 00 00 00 00 00  Length = 284247 BitCount = 145 ID = 419351115x
  45.000919 1  CF00400x        Rx   d 8 00 00 00 68 01 00 00 00  Length = 288247 BitCount = 147 ID = 217056256x
  45.500624 1  18FECA00x       Rx   d 8 97 97 00 00 02 07 00 00  Length = 278247 BitCount = 142 ID = 419351040x
  46.000605 1  18FECA4Bx       Rx   d 8 00 00 00 00 00 00 00 00  Length = 284263 BitCount = 145 ID = 419351115x
  46.000900 1  CF00400x        Rx   d 8 00 00 00 70 01 00 00 00  Length = 288263 BitCount = 147 ID = 217056256x
  46.500804 1  18FECA00x       Rx   d 8 97 97 00 00 02 07 00 00  Length = 278263 BitCount = 142 ID = 419351040x
  47.000626 1  18FECA4Bx       Rx   d 8 00 00 00 00 00 00 00 00  Length = 284263 BitCount = 145 ID = 419351115x
  47.000918 1  CF00400x        Rx   d 8 00 00 00 78 01 00 00 00  Length = 286263 BitCount = 146 ID = 217056256x
  47.500646 1  18FECA00x       Rx   d 8 97 97 00 00 02 07 00 00  Length = 278263 BitCount = 142 ID = 419351040x
  48.000595 1  18FECA4Bx       Rx   d 8 00 00 00 00 00 00 00 00  Length = 284263 BitCount = 145 ID = 419351115x
  48.000889 1  CF00400x        Rx   d 8 00 00 00 80 01 00 00 00  Length = 288263 BitCount = 147 ID = 217056256x
  48.500633 1  18FECA00x       Rx   d 8 97 97 00 00 02 07 00 00  Length = 278247 BitCount = 142 ID = 419351040x
  49.000655 1  18FECA4Bx       Rx   d 8 00 00 00 00 00 00 00 00  Length = 284247 BitCount = 145 ID = 419351115x
  49.000947 1  CF00400x        Rx   d 8 00 00 00 88 01 00 00 00  Length = 286247 BitCount = 146 ID = 217056256x
  49.500621 1  18FECA00x       Rx   d 8 97 97 00 00 02 07 00 00  Length = 278247 BitCount = 142 ID = 419351040x
  50.000594 1  18FECA4Bx       Rx   d 8 00 00 00 00 00 00 00 00  Length = 284247 BitCount = 145 ID = 419351115x
  50.000886 1  CF00400x        Rx   d 8 00 00 00 90 01 00 00 00  Length = 286247 BitCount = 146 ID = 217056256x
  50.500624 1  18FECA00x       Rx   d 8 97 97 00 00 02 07 00 00  Length = 278247 BitCount = 142 ID = 419351040x
  51.000586 1  18FECA4Bx       Rx   d 8 00 00 00 00 00 00 00 00  Length = 284262 BitCount = 145 ID = 419351115x
  51.000877 1  CF00400x        Rx   d 8 00 00 00 98 01 00 00 00  Length = 284262 BitCount = 145 ID = 217056256x
  51.500622 1  18FECA00x       Rx   d 8 97 97 00 00 02 07 00 00  Length = 278263 BitCount = 142 ID = 419351040x
  52.000655 1  18FECA4Bx       Rx   d 8 00 00 00 00 00 00 00 00  Length = 284263 BitCount = 145 ID = 419351115x
  52.000947 1  CF00400x        Rx   d 8 00 00 00 A0 01 00 00 00  Length = 286263 BitCount = 146 ID = 217056256x
  52.500641 1  18FECA00x       Rx   d 8 97 97 00 00 02 07 00 00  Length = 278262 BitCount = 142 ID = 419351040x
  53.000597 1  CF00400x        Rx   d 8 00 00 00 A8 01 00 00 00  Length = 284262 BitCount = 145 ID = 217056256x
  53.000887 1  18FECA4Bx       Rx   d 8 00 00 00 00 00 00 00 00  Length = 284262 BitCount = 145 ID = 419351115x
  53.500567 1  18FECA00x       Rx   d 8 97 97 00 00 02 07 00 00  Length = 278247 BitCount = 142 ID = 419351040x
  54.000573 1  18FECA4Bx       Rx   d 8 00 00 00 00 00 00 00 00  Length = 284247 BitCount = 145 ID = 419351115x
  54.000867 1  CF00400x        Rx   d 8 00 00 00 B0 01 00 00 00  Length = 288247 BitCount = 147 ID = 217056256x
  54.500577 1  18FECA00x       Rx   d 8 97 97 00 00 02 07 00 00  Length = 278247 BitCount = 142 ID = 419351040x
  55.000563 1  18FECA4Bx       Rx   d 8 00 00 00 00 00 00 00 00  Length = 284247 BitCount = 145 ID = 419351115x
  55.000855 1  CF00400x        Rx   d 8 00 00 00 B8 01 00 00 00  Length = 286247 BitCount = 146 ID = 217056256x
  55.500591 1  18FECA00x       Rx   d 8 97 97 00 00 02 07 00 00  Length = 278247 BitCount = 142 ID = 419351040x
  56.000580 1  18FECA4Bx       Rx   d 8 00 00 00 00 00 00 00 00  Length = 284263 BitCount = 145 ID = 419351115x
  56.000874 1  CF00400x        Rx   d 8 00 00 00 C0 01 00 00 00  Length = 288263 BitCount = 147 ID = 217056256x
  56.500622 1  18FECA00x       Rx   d 8 97 97 00 00 02 07 00 00  Length = 278263 BitCount = 142 ID = 419351040x
  57.000610 1  18FECA4Bx       Rx   d 8 00 00 00 00 00 00 00 00  Length = 284263 BitCount = 145 ID = 419351115x
  57.000902 1  CF00400x        Rx   d 8 00 00 00 C8 01 00 00 00  Length = 286263 BitCount = 146 ID = 217056256x
  57.500601 1  18FECA00x       Rx   d 8 97 97 00 00 02 07 00 00  Length = 278247 BitCount = 142 ID = 419351040x
  58.000594 1  18FECA4Bx       Rx   d 8 00 00 00 00 00 00 00 00  Length = 284247 BitCount = 145 ID = 419351115x
  58.000886 1  CF00400x        Rx   d 8 00 00 00 D0 01 00 00 00  Length = 286247 BitCount = 146 ID = 217056256x
  58.500593 1  18FECA00x       Rx   d 8 97 97 00 00 02 07 00 00  Length = 278247 BitCount = 142 ID = 419351040x
  59.000569 1  18FECA4Bx       Rx   d 8 00 00 00 00 00 00 00 00  Length = 284247 BitCount = 145 ID = 419351115x
  59.000859 1  CF00400x        Rx   d 8 00 00 00 D8 01 00 00 00  Length = 284247 BitCount = 145 ID = 217056256x
  59.500834 1  18FECA00x       Rx   d 8 97 97 00 00 02 07 00 00  Length = 278247 BitCount = 142 ID = 419351040x
  60.000571 1  18FECA4Bx       Rx   d 8 00 00 00 00 00 00 00 00  Length = 284247 BitCount = 145 ID = 419351115x
  60.000863 1  CF00400x        Rx   d 8 00 00 00 E0 01 00 00 00  Length = 286247 BitCount = 146 ID = 217056256x
  60.500588 1  18FECA00x       Rx   d 8 97 97 00 00 02 07 00 00  Length = 278263 BitCount = 142 ID = 419351040x
  61.000611 1  18ECFF4Bx       Rx   d 8 20 0A 00 02 FF CA FE 00  Length = 276263 BitCount = 141 ID = 418185035x
  61.000903 1  CF00400x        Rx   d 8 00 00 00 E8 01 00 00 00  Length = 286263 BitCount = 146 ID = 217056256x
  61.050759 1  18EBFF4Bx       Rx   d 8 01 00 FF 1A F0 F3 01 0F  Length = 272263 BitCount = 139 ID = 418119499x
  61.100734 1  18EBFF4Bx       Rx   d 8 02 F0 F3 01 FF FF FF FF  Length = 276263 BitCount = 141 ID = 418119499x
  61.500600 1  18FECA00x       Rx   d 8 97 97 00 00 02 07 00 00  Length = 278247 BitCount = 142 ID = 419351040x
  62.000582 1  18ECFF4Bx       Rx   d 8 20 0A 00 02 FF CA FE 00  Length = 276247 BitCount = 141 ID = 418185035x
  62.000874 1  CF00400x        Rx   d 8 00 00 00 F0 01 00 00 00  Length = 286247 BitCount = 146 ID = 217056256x
  62.050781 1  18EBFF4Bx       Rx   d 8 01 00 FF 1A F0 F3 01 0F  Length = 272247 BitCount = 139 ID = 418119499x
  62.100735 1  18EBFF4Bx       Rx   d 8 02 F0 F3 01 FF FF FF FF  Length = 276247 BitCount = 141 ID = 418119499x
  62.500603 1  18FECA00x       Rx   d 8 97 97 00 00 02 07 00 00  Length = 278262 BitCount = 142 ID = 419351040x
  63.000583 1  18ECFF4Bx       Rx   d 8 20 0A 00 02 FF CA FE 00  Length = 276262 BitCount = 141 ID = 418185035x
  63.000879 1  CF00400x        Rx   d 8 00 00 00 F8 01 00 00 00  Length = 290262 BitCount = 148 ID = 217056256x
  63.050764 1  18EBFF4Bx       Rx   d 8 01 00 FF 1A F0 F3 01 0F  Length = 272262 BitCount = 139 ID = 418119499x
  63.100730 1  18EBFF4Bx       Rx   d 8 02 F0 F3 01 FF FF FF FF  Length = 276262 BitCount = 141 ID = 418119499x
  63.500620 1  18FECA00x       Rx   d 8 97 97 00 00 02 07 00 00  Length = 278247 BitCount = 142 ID = 419351040x
  64.000614 1  CF00400x        Rx   d 8 00 00 00 00 02 00 00 00  Length = 288247 BitCount = 147 ID = 217056256x
  64.000896 1  18ECFF4Bx       Rx   d 8 20 0A 00 02 FF CA FE 00  Length = 276247 BitCount = 141 ID = 418185035x
  64.050703 1  18EBFF4Bx       Rx   d 8 01 00 FF 1A F0 F3 01 0F  Length = 272247 BitCount = 139 ID = 418119499x
  64.100743 1  18EBFF4Bx       Rx   d 8 02 F0 F3 01 FF FF FF FF  Length = 276247 BitCount = 141 ID = 418119499x
  64.500685 1  18FECA00x       Rx   d 8 97 97 00 00 02 07 00 00  Length = 278263 BitCount = 142 ID = 419351040x
  65.000597 1  18ECFF4Bx       Rx   d 8 20 0A 00 02 FF CA FE 00  Length = 276263 BitCount = 141 ID = 418185035x
  65.000889 1  CF00400x        Rx   d 8 00 00 00 08 02 00 00 00  Length = 286263 BitCount = 146 ID = 217056256x
  65.050720 1  18EBFF4Bx       Rx   d 8 01 00 FF 1A F0 F3 01 0F  Length = 272263 BitCount = 139 ID = 418119499x
  65.100776 1  18EBFF4Bx       Rx   d 8 02 F0 F3 01 FF FF FF FF  Length = 276263 BitCount = 141 ID = 418119499x
  65.500630 1  18FECA00x       Rx   d 8 97 97 00 00 02 07 00 00  Length = 278247 BitCount = 142 ID = 419351040x
  66.000597 1  18ECFF4Bx       Rx   d 8 20 0A 00 02 FF CA FE 00  Length = 276263 BitCount = 141 ID = 418185035x
  66.000891 1  CF00400x        Rx   d 8 00 00 00 10 02 00 00 00  Length = 288263 BitCount = 147 ID = 217056256x
  66.050760 1  18EBFF4Bx       Rx   d 8 01 00 FF 1A F0 F3 01 0F  Length = 272263 BitCount = 139 ID = 418119499x
  66.100590 1  18EBFF4Bx       Rx   d 8 02 F0 F3 01 FF FF FF FF  Length = 276263 BitCount = 141 ID = 418119499x
  66.500584 1  18FECA00x       Rx   d 8 97 97 1A F0 E2 07 00 00  Length = 270247 BitCount = 138 ID = 419351040x
  67.000564 1  18ECFF4Bx       Rx   d 8 20 0A 00 02 FF CA FE 00  Length = 276247 BitCount = 141 ID = 418185035x
  67.000856 1  CF00400x        Rx   d 8 00 00 00 18 02 00 00 00  Length = 286247 BitCount = 146 ID = 217056256x
  67.050758 1  18EBFF4Bx       Rx   d 8 01 00 FF 1A F0 F3 01 0F  Length = 272247 BitCount = 139 ID = 418119499x
  67.100545 1  18EBFF4Bx       Rx   d 8 02 F0 F3 01 FF FF FF FF  Length = 276247 BitCount = 141 ID = 418119499x
  67.500614 1  18FECA00x       Rx   d 8 97 97 1A F0 E2 07 00 00  Length = 270247 BitCount = 138 ID = 419351040x
  68.000577 1  18ECFF4Bx       Rx   d 8 20 0A 00 02 FF CA FE 00  Length = 276247 BitCount = 141 ID = 418185035x
  68.000869 1  CF00400x        Rx   d 8 00 00 00 20 02 00 00 00  Length = 286247 BitCount = 146 ID = 217056256x
  68.050745 1  18EBFF4Bx       Rx   d 8 01 00 FF 1A F0 F3 01 0F  Length = 272247 BitCount = 139 ID = 418119499x
  68.100729 1  18EBFF4Bx       Rx   d 8 02 F0 F3 01 FF FF FF FF  Length = 276247 BitCount = 141 ID = 418119499x
  68.500573 1  18FECA00x       Rx   d 8 97 97 1A F0 E2 07 00 00  Length = 270262 BitCount = 138 ID = 419351040x
  69.000557 1  18ECFF4Bx       Rx   d 8 20 0A 00 02 FF CA FE 00  Length = 276262 BitCount = 141 ID = 418185035x
  69.000847 1  CF00400x        Rx   d 8 00 00 00 28 02 00 00 00  Length = 284262 BitCount = 145 ID = 217056256x
  69.050758 1  18EBFF4Bx       Rx   d 8 01 00 FF 1A F0 F3 01 0F  Length = 272262 BitCount = 139 ID = 418119499x
  69.100716 1  18EBFF4Bx       Rx   d 8 02 F0 F3 01 FF FF FF FF  Length = 276262 BitCount = 141 ID = 418119499x
  69.500606 1  18FECA00x       Rx   d 8 97 97 1A F0 E2 07 00 00  Length = 270263 BitCount = 138 ID = 419351040x
  70.000584 1  18ECFF4Bx       Rx   d 8 20 0A 00 02 FF CA FE 00  Length = 276263 BitCount = 141 ID = 418185035x
  70.000878 1  CF00400x        Rx   d 8 00 00 00 30 02 00 00 00  Length = 288263 BitCount = 147 ID = 217056256x
  70.050746 1  18EBFF4Bx       Rx   d 8 01 00 FF 1A F0 F3 01 0F  Length = 272263 BitCount = 139 ID = 418119499x
  70.100703 1  18EBFF4Bx       Rx   d 8 02 F0 F3 01 FF FF FF FF  Length = 276263 BitCount = 141 ID = 418119499x
  70.500596 1  18FECA00x       Rx   d 8 97 97 1A F0 E2 07 00 00  Length = 270247 BitCount = 138 ID = 419351040x
  71.000603 1  18ECFF4Bx       Rx   d 8 20 0A 00 02 FF CA FE 00  Length = 276262 BitCount = 141 ID = 418185035x
  71.000893 1  CF00400x        Rx   d 8 00 00 00 38 02 00 00 00  Length = 284262 BitCount = 145 ID = 217056256x
  71.050755 1  18EBFF4Bx       Rx   d 8 01 00 FF 1A F0 F3 01 0F  Length = 272262 BitCount = 139 ID = 418119499x
  71.100688 1  18EBFF4Bx       Rx   d 8 02 F0 F3 01 FF FF FF FF  Length = 276262 BitCount = 141 ID = 418119499x
  71.500595 1  18FECA00x       Rx   d 8 97 97 00 00 02 07 00 00  Length = 278262 BitCount = 142 ID = 419351040x
  72.000573 1  18ECFF4Bx       Rx   d 8 20 0A 00 02 FF CA FE 00  Length = 276262 BitCount = 141 ID = 418185035x
  72.000866 1  CF00400x        Rx   d 8 00 00 00 40 02 00 00 00  Length = 286262 BitCount = 146 ID = 217056256x
  72.050772 1  18EBFF4Bx       Rx   d 8 01 00 FF 1A F0 F3 01 0F  Length = 272262 BitCount = 139 ID = 418119499x
  72.100678 1  18EBFF4Bx       Rx   d 8 02 F0 F3 01 FF FF FF FF  Length = 276262 BitCount = 141 ID = 418119499x
  72.500625 1  18FECA00x       Rx   d 8 97 97 00 00 02 07 00 00  Length = 278247 BitCount = 142 ID = 419351040x
  73.000572 1  18ECFF4Bx       Rx   d 8 20 0A 00 02 FF CA FE 00  Length = 276247 BitCount = 141 ID = 418185035x
  73.000862 1  CF00400x        Rx   d 8 00 00 00 48 02 00 00 00  Length = 284247 BitCount = 145 ID = 217056256x
  73.050758 1  18EBFF4Bx       Rx   d 8 01 00 FF 1A F0 F3 01 0F  Length = 272247 BitCount = 139 ID = 418119499x
  73.100666 1  18EBFF4Bx       Rx   d 8 02 F0 F3 01 FF FF FF FF  Length = 276247 BitCount = 141 ID = 418119499x
  73.500668 1  18FECA00x       Rx   d 8 97 97 00 00 02 07 00 00  Length = 278263 BitCount = 142 ID = 419351040x
  74.000546 1  18ECFF4Bx       Rx   d 8 20 0A 00 02 FF CA FE 00  Length = 276263 BitCount = 141 ID = 418185035x
  74.000838 1  CF00400x        Rx   d 8 00 00 00 50 02 00 00 00  Length = 286263 BitCount = 146 ID = 217056256x
  74.050770 1  18EBFF4Bx       Rx   d 8 01 00 FF 1A F0 F3 01 0F  Length = 272263 BitCount = 139 ID = 418119499x
  74.100647 1  18EBFF4Bx       Rx   d 8 02 F0 F3 01 FF FF FF FF  Length = 276263 BitCount = 141 ID = 418119499x
  74.500616 1  18FECA00x       Rx   d 8 97 97 00 00 02 07 00 00  Length = 278247 BitCount = 142 ID = 419351040x
  75.000610 1  18ECFF4Bx       Rx   d 8 20 0A 00 02 FF CA FE 00  Length = 276247 BitCount = 141 ID = 418185035x
  75.000900 1  CF00400x        Rx   d 8 00 00 00 58 02 00 00 00  Length = 284247 BitCount = 145 ID = 217056256x
  75.050760 1  18EBFF4Bx       Rx   d 8 01 00 FF 1A F0 F3 01 0F  Length = 272247 BitCount = 139 ID = 418119499x
  75.100635 1  18EBFF4Bx       Rx   d 8 02 F0 F3 01 FF FF FF FF  Length = 276247 BitCount = 141 ID = 418119499x
  75.500578 1  18FECA00x       Rx   d 8 97 97 00 00 02 07 00 00  Length = 278262 BitCount = 142 ID = 419351040x
  76.000583 1  CF00400x        Rx   d 8 00 00 00 60 02 00 00 00  Length = 288263 BitCount = 147 ID = 217056256x
  76.000873 1  18FECA4Bx       Rx   d 8 00 00 00 00 00 00 00 00  Length = 284263 BitCount = 145 ID = 419351115x
  76.500591 1  18FECA00x       Rx   d 8 97 97 C8 00 02 07 00 00  Length = 278247 BitCount = 142 ID = 419351040x
  77.000589 1  CF00400x        Rx   d 8 00 00 00 68 02 00 00 00  Length = 286247 BitCount = 146 ID = 217056256x
  77.000879 1  18FECA4Bx       Rx   d 8 00 00 00 00 00 00 00 00  Length = 284247 BitCount = 145 ID = 419351115x
  77.500609 1  18FECA00x       Rx   d 8 97 97 C8 00 02 07 00 00  Length = 278263 BitCount = 142 ID = 419351040x
  78.000607 1  18FECA4Bx       Rx   d 8 00 00 00 00 00 00 00 00  Length = 284263 BitCount = 145 ID = 419351115x
  78.000899 1  CF00400x        Rx   d 8 00 00 00 70 02 00 00 00  Length = 286263 BitCount = 146 ID = 217056256x
  78.500589 1  18FECA00x       Rx   d 8 97 97 C8 00 02 07 00 00  Length = 278247 BitCount = 142 ID = 419351040x
  79.000675 1  18FECA4Bx       Rx   d 8 00 00 00 00 00 00 00 00  Length = 284247 BitCount = 145 ID = 419351115x
  79.000965 1  CF00400x        Rx   d 8 00 00 00 78 02 00 00 00  Length = 284247 BitCount = 145 ID = 217056256x
  79.500589 1  18FECA00x       Rx   d 8 97 97 C8 00 02 07 00 00  Length = 278263 BitCount = 142 ID = 419351040x
  80.000597 1  18FECA4Bx       Rx   d 8 00 00 00 00 00 00 00 00  Length = 284263 BitCount = 145 ID = 419351115x
  80.000891 1  CF00400x        Rx   d 8 00 00 00 80 02 00 00 00  Length = 288263 BitCount = 147 ID = 217056256x
  80.500615 1  18FECA00x       Rx   d 8 97 97 C8 00 02 07 00 00  Length = 278247 BitCount = 142 ID = 419351040x
  81.000575 1  18FECA4Bx       Rx   d 8 00 00 00 00 00 00 00 00  Length = 284247 BitCount = 145 ID = 419351115x
  81.000866 1  CF00400x        Rx   d 8 00 00 00 88 02 00 00 00  Length = 284247 BitCount = 145 ID = 217056256x
  81.500611 1  18FECA00x       Rx   d 8 97 97 C8 00 01 07 00 00  Length = 278263 BitCount = 142 ID = 419351040x
  82.000605 1  18FECA4Bx       Rx   d 8 00 00 00 00 00 00 00 00  Length = 284263 BitCount = 145 ID = 419351115x
  82.000899 1  CF00400x        Rx   d 8 00 00 00 90 02 00 00 00  Length = 288263 BitCount = 147 ID = 217056256x
  82.500618 1  18FECA00x       Rx   d 8 97 97 C8 00 01 07 00 00  Length = 278262 BitCount = 142 ID = 419351040x
  83.000569 1  18FECA4Bx       Rx   d 8 00 00 00 00 00 00 00 00  Length = 284262 BitCount = 145 ID = 419351115x
  83.000863 1  CF00400x        Rx   d 8 00 00 00 98 02 00 00 00  Length = 288262 BitCount = 147 ID = 217056256x
  83.500622 1  18FECA00x       Rx   d 8 97 97 C8 00 01 07 00 00  Length = 278247 BitCount = 142 ID = 419351040x
  84.000594 1  18FECA4Bx       Rx   d 8 00 00 00 00 00 00 00 00  Length = 284247 BitCount = 145 ID = 419351115x
  84.000886 1  CF00400x        Rx   d 8 00 00 00 A0 02 00 00 00  Length = 286247 BitCount = 146 ID = 217056256x
  84.500569 1  18FECA00x       Rx   d 8 97 97 C8 00 01 07 00 00  Length = 278247 BitCount = 142 ID = 419351040x
  85.000594 1  CF00400x        Rx   d 8 00 00 00 A8 02 00 00 00  Length = 284247 BitCount = 145 ID = 217056256x
  85.000884 1  18FECA4Bx       Rx   d 8 00 00 00 00 00 00 00 00  Length = 284247 BitCount = 145 ID = 419351115x
  85.500583 1  18FECA00x       Rx   d 8 97 97 C8 00 01 07 00 00  Length = 278247 BitCount = 142 ID = 419351040x
  86.001002 1  CF00400x        Rx   d 8 00 00 00 B0 02 00 00 00  Length = 288247 BitCount = 147 ID = 217056256x
  86.001292 1  18FECA4Bx       Rx   d 8 00 00 00 00 00 00 00 00  Length = 284247 BitCount = 145 ID = 419351115x
  86.500585 1  18FECA00x       Rx   d 8 97 97 C8 00 01 07 00 00  Length = 278263 BitCount = 142 ID = 419351040x
  87.000981 1  CF00400x        Rx   d 8 00 00 00 B8 02 00 00 00  Length = 284263 BitCount = 145 ID = 217056256x
  87.001271 1  18FECA4Bx       Rx   d 8 00 00 00 00 00 00 00 00  Length = 284263 BitCount = 145 ID = 419351115x
  87.500602 1  18FECA00x       Rx   d 8 97 97 C8 00 01 07 00 00  Length = 278262 BitCount = 142 ID = 419351040x
  88.000596 1  18FECA4Bx       Rx   d 8 00 00 00 00 00 00 00 00  Length = 284262 BitCount = 145 ID = 419351115x
  88.000891 1  CF00400x        Rx   d 8 00 00 00 C0 02 00 00 00  Length = 288262 BitCount = 147 ID = 217056256x
  88.500631 1  18FECA00x       Rx   d 8 97 97 C8 00 01 07 00 00  Length = 278263 BitCount = 142 ID = 419351040x
  89.000583 1  18FECA4Bx       Rx   d 8 00 00 00 00 00 00 00 00  Length = 284263 BitCount = 145 ID = 419351115x
  89.000874 1  CF00400x        Rx   d 8 00 00 00 C8 02 00 00 00  Length = 284263 BitCount = 145 ID = 217056256x
  89.500600 1  18FECA00x       Rx   d 8 97 97 C8 00 01 07 00 00  Length = 278262 BitCount = 142 ID = 419351040x
  90.000574 1  18FECA4Bx       Rx   d 8 00 00 00 00 00 00 00 00  Length = 284262 BitCount = 145 ID = 419351115x
  90.000867 1  CF00400x        Rx   d 8 00 00 00 D0 02 00 00 00  Length = 286262 BitCount = 146 ID = 217056256x
  90.500607 1  18FECA00x       Rx   d 8 97 97 C8 00 01 07 00 00  Length = 278263 BitCount = 142 ID = 419351040x
  91.000586 1  18FECA4Bx       Rx   d 8 00 00 00 00 00 00 00 00  Length = 284263 BitCount = 145 ID = 419351115x
  91.000878 1  CF00400x        Rx   d 8 00 00 00 D8 02 00 00 00  Length = 286263 BitCount = 146 ID = 217056256x
  91.500583 1  18FECA00x       Rx   d 8 97 97 C8 00 02 07 00 00  Length = 278262 BitCount = 142 ID = 419351040x
  92.000769 1  18FECA4Bx       Rx   d 8 00 00 00 00 00 00 00 00  Length = 284262 BitCount = 145 ID = 419351115x
  92.001061 1  CF00400x        Rx   d 8 00 00 00 E0 02 00 00 00  Length = 286262 BitCount = 146 ID = 217056256x
  92.500611 1  18FECA00x       Rx   d 8 97 97 C8 00 02 07 00 00  Length = 278263 BitCount = 142 ID = 419351040x
  93.000568 1  18FECA4Bx       Rx   d 8 00 00 00 00 00 00 00 00  Length = 284263 BitCount = 145 ID = 419351115x
  93.000858 1  CF00400x        Rx   d 8 00 00 00 E8 02 00 00 00  Length = 284263 BitCount = 145 ID = 217056256x
  93.500580 1  18FECA00x       Rx   d 8 97 97 C8 00 02 07 00 00  Length = 278247 BitCount = 142 ID = 419351040x
  94.000562 1  18FECA4Bx       Rx   d 8 00 00 00 00 00 00 00 00  Length = 284247 BitCount = 145 ID = 419351115x
  94.000857 1  CF00400x        Rx   d 8 00 00 00 F0 02 00 00 00  Length = 288247 BitCount = 147 ID = 217056256x
  94.500581 1  18FECA00x       Rx   d 8 97 97 C8 00 02 07 00 00  Length = 278247 BitCount = 142 ID = 419351040x
  95.000569 1  18FECA4Bx       Rx   d 8 00 00 00 00 00 00 00 00  Length = 284247 BitCount = 145 ID = 419351115x
  95.000863 1  CF00400x        Rx   d 8 00 00 00 F8 02 00 00 00  Length = 288247 BitCount = 147 ID = 217056256x
  95.500573 1  18FECA00x       Rx   d 8 97 97 C8 00 02 07 00 00  Length = 278247 BitCount = 142 ID = 419351040x
  96.000592 1  CF00400x        Rx   d 8 00 00 00 00 03 00 00 00  Length = 288263 BitCount = 147 ID = 217056256x
  96.000883 1  18FECA4Bx       Rx   d 8 00 00 00 00 00 00 00 00  Length = 284263 BitCount = 145 ID = 419351115x
  96.500560 1  18FECA00x       Rx   d 8 97 97 00 00 02 07 00 00  Length = 278262 BitCount = 142 ID = 419351040x
  97.000607 1  18FECA4Bx       Rx   d 8 00 00 00 00 00 00 00 00  Length = 284262 BitCount = 145 ID = 419351115x
  97.000901 1  CF00400x        Rx   d 8 00 00 00 08 03 00 00 00  Length = 288262 BitCount = 147 ID = 217056256x
  97.500591 1  18FECA00x       Rx   d 8 97 97 00 00 02 07 00 00  Length = 278263 BitCount = 142 ID = 419351040x
  98.000623 1  CF00400x        Rx   d 8 00 00 00 10 03 00 00 00  Length = 288263 BitCount = 147 ID = 217056256x
  98.000913 1  18FECA4Bx       Rx   d 8 00 00 00 00 00 00 00 00  Length = 284263 BitCount = 145 ID = 419351115x
  98.500619 1  18FECA00x       Rx   d 8 97 97 00 00 02 07 00 00  Length = 278247 BitCount = 142 ID = 419351040x
  99.000579 1  18FECA4Bx       Rx   d 8 00 00 00 00 00 00 00 00  Length = 284247 BitCount = 145 ID = 419351115x
  99.000869 1  CF00400x        Rx   d 8 00 00 00 18 03 00 00 00  Length = 284247 BitCount = 145 ID = 217056256x
  99.500579 1  18FECA00x       Rx   d 8 97 97 00 00 02 07 00 00  Length = 278247 BitCount = 142 ID = 419351040x
 100.000575 1  18FECA4Bx       Rx   d 8 00 00 00 00 00 00 00 00  Length = 284247 BitCount = 145 ID = 419351115x
 100.000866 1  CF00400x        Rx   d 8 00 00 00 20 03 00 00 00  Length = 284247 BitCount = 145 ID = 217056256x
 100.500609 1  18FECA00x       Rx   d 8 97 97 00 00 02 07 00 00  Length = 278247 BitCount = 142 ID = 419351040x
 101.000564 1  18FECA4Bx       Rx   d 8 00 00 00 00 00 00 00 00  Length = 284247 BitCount = 145 ID = 419351115x
 101.000852 1  CF00400x        Rx   d 8 00 00 00 28 03 00 00 00  Length = 282247 BitCount = 144 ID = 217056256x
 101.500592 1  18FECA00x       Rx   d 8 97 97 00 00 02 07 00 00  Length = 278263 BitCount = 142 ID = 419351040x
 102.000546 1  18FECA4Bx       Rx   d 8 00 00 00 00 00 00 00 00  Length = 284263 BitCount = 145 ID = 419351115x
 102.000838 1  CF00400x        Rx   d 8 00 00 00 30 03 00 00 00  Length = 286263 BitCount = 146 ID = 217056256x
 102.500764 1  18FECA00x       Rx   d 8 97 97 00 00 02 07 00 00  Length = 278247 BitCount = 142 ID = 419351040x
 103.000620 1  18FECA4Bx       Rx   d 8 00 00 00 00 00 00 00 00  Length = 284247 BitCount = 145 ID = 419351115x
 103.000912 1  CF00400x        Rx   d 8 00 00 00 38 03 00 00 00  Length = 286247 BitCount = 146 ID = 217056256x
 103.500571 1  18FECA00x       Rx   d 8 97 97 00 00 02 07 00 00  Length = 278262 BitCount = 142 ID = 419351040x
 104.000780 1  18FECA4Bx       Rx   d 8 00 00 00 00 00 00 00 00  Length = 284262 BitCount = 145 ID = 419351115x
 104.001072 1  CF00400x        Rx   d 8 00 00 00 40 03 00 00 00  Length = 286262 BitCount = 146 ID = 217056256x
 104.500785 1  18FECA00x       Rx   d 8 97 97 00 00 02 07 00 00  Length = 278247 BitCount = 142 ID = 419351040x
 105.000615 1  18FECA4Bx       Rx   d 8 00 00 00 00 00 00 00 00  Length = 284247 BitCount = 145 ID = 419351115x
 105.000910 1  CF00400x        Rx   d 8 00 00 00 48 03 00 00 00  Length = 288247 BitCount = 147 ID = 217056256x
 105.500793 1  18FECA00x       Rx   d 8 97 97 00 00 02 07 00 00  Length = 278247 BitCount = 142 ID = 419351040x