date Fri Jun 11 10:19:57 AM 2021
base hex timestamps absolute
no internal events logged
// version 8.5.0
   0.000000 1  1000001x        Rx   d 1 00  Length = 156000 BitCount = 82 ID = 16777217x
   0.153444 1  1868FFF9x       Rx   d 8 FF F0 FF FF FF FF FF FF  Length = 284000 BitCount = 146 ID = 409534457x
   5.001965 1  1000001x        Rx   d 1 01  Length = 156000 BitCount = 82 ID = 16777217x
  10.003562 1  1000001x        Rx   d 1 02  Length = 158000 BitCount = 83 ID = 16777217x
  10.153668 1  1868FFF9x       Rx   d 8 FF F0 FF FF FF FF FF FF  Length = 284000 BitCount = 146 ID = 409534457x
  15.004743 1  1000001x        Rx   d 1 03  Length = 156000 BitCount = 82 ID = 16777217x
  20.006476 1  1000001x        Rx   d 1 04  Length = 160000 BitCount = 84 ID = 16777217x
  20.153865 1  1868FFF9x       Rx   d 8 FF F0 FF FF FF FF FF FF  Length = 284000 BitCount = 146 ID = 409534457x
  25.008246 1  1000001x        Rx   d 1 05  Length = 158000 BitCount = 83 ID = 16777217x
  30.009503 1  1000001x        Rx   d 1 06  Length = 156000 BitCount = 82 ID = 16777217x
  30.154104 1  1868FFF9x       Rx   d 8 FF F0 FF FF FF FF FF FF  Length = 284000 BitCount = 146 ID = 409534457x
  35.010868 1  1000001x        Rx   d 1 07  Length = 156000 BitCount = 82 ID = 16777217x
  40.012429 1  1000001x        Rx   d 1 08  Length = 154000 BitCount = 81 ID = 16777217x
  40.154284 1  1868FFF9x       Rx   d 8 FF F0 FF FF FF FF FF FF  Length = 284000 BitCount = 146 ID = 409534457x
  45.014032 1  1000001x        Rx   d 1 09  Length = 154000 BitCount = 81 ID = 16777217x
  50.015437 1  1000001x        Rx   d 1 0A  Length = 156000 BitCount = 82 ID = 16777217x
  50.154627 1  1868FFF9x       Rx   d 8 FF F0 FF FF FF FF FF FF  Length = 284000 BitCount = 146 ID = 409534457x
  55.017326 1  1000001x        Rx   d 1 0B  Length = 154000 BitCount = 81 ID = 16777217x
  60.019234 1  1000001x        Rx   d 1 0C  Length = 154000 BitCount = 81 ID = 16777217x
  60.154842 1  1868FFF9x       Rx   d 8 FF F0 FF FF FF FF FF FF  Length = 284000 BitCount = 146 ID = 409534457x
  65.020635 1  1000001x        Rx   d 1 0D  Length = 158000 BitCount = 83 ID = 16777217x
  70.021714 1  1000001x        Rx   d 1 0E  Length = 154000 BitCount = 81 ID = 16777217x
  70.154979 1  1868FFF9x       Rx   d 8 FF F0 FF FF FF FF FF FF  Length = 284000 BitCount = 146 ID = 409534457x
  75.022940 1  1000001x        Rx   d 1 0F  Length = 156000 BitCount = 82 ID = 16777217x
  80.024714 1  1000001x        Rx   d 1 10  Length = 154000 BitCount = 81 ID = 16777217x
  80.155217 1  1868FFF9x       Rx   d 8 FF F0 FF FF FF FF FF FF  Length = 284000 BitCount = 146 ID = 409534457x
  85.025612 1  1000001x        Rx   d 1 11  Length = 154000 BitCount = 81 ID = 16777217x
  90.027327 1  1000001x        Rx   d 1 12  Length = 154000 BitCount = 81 ID = 16777217x
  90.155343 1  1868FFF9x       Rx   d 8 FF F0 FF FF FF FF FF FF  Length = 284000 BitCount = 146 ID = 409534457x
  95.029039 1  1000001x        Rx   d 1 13  Length = 158000 BitCount = 83 ID = 16777217x
 100.030503 1  1000001x        Rx   d 1 14  Length = 156000 BitCount = 82 ID = 16777217x
 100.155486 1  1868FFF9x       Rx   d 8 FF F0 FF FF FF FF FF FF  Length = 284000 BitCount = 146 ID = 409534457x
 105.031594 1  1000001x        Rx   d 1 15  Length = 154000 BitCount = 81 ID = 16777217x
 110.033446 1  1000001x        Rx   d 1 16  Length = 154000 BitCount = 81 ID = 16777217x
 110.155728 1  1868FFF9x       Rx   d 8 FF F0 FF FF FF FF FF FF  Length = 284000 BitCount = 146 ID = 409534457x
 115.034650 1  1000001x        Rx   d 1 17  Length = 156000 BitCount = 82 ID = 16777217x
 120.036208 1  1000001x        Rx   d 1 18  Length = 158000 BitCount = 83 ID = 16777217x
 120.155996 1  1868FFF9x       Rx   d 8 FF F0 FF FF FF FF FF FF  Length = 284000 BitCount = 146 ID = 409534457x
 125.037150 1  1000001x        Rx   d 1 19  Length = 154000 BitCount = 81 ID = 16777217x
 130.038954 1  1000001x        Rx   d 1 1A  Length = 154000 BitCount = 81 ID = 16777217x
 130.156196 1  1868FFF9x       Rx   d 8 FF F0 FF FF FF FF FF FF  Length = 284000 BitCount = 146 ID = 409534457x
 135.039912 1  1000001x        Rx   d 1 1B  Length = 156000 BitCount = 82 ID = 16777217x
 140.041583 1  1000001x        Rx   d 1 1C  Length = 156000 BitCount = 82 ID = 16777217x
 140.156442 1  1868FFF9x       Rx   d 8 FF F0 FF FF FF FF FF FF  Length = 284000 BitCount = 146 ID = 409534457x
 145.042614 1  1000001x        Rx   d 1 1D  Length = 154000 BitCount = 81 ID = 16777217x
 150.043855 1  1000001x        Rx   d 1 1E  Length = 154000 BitCount = 81 ID = 16777217x
 150.156614 1  1868FFF9x       Rx   d 8 FF F0 FF FF FF FF FF FF  Length = 284000 BitCount = 146 ID = 409534457x
 155.044974 1  1000001x        Rx   d 1 1F  Length = 156000 BitCount = 82 ID = 16777217x
 160.046615 1  1000001x        Rx   d 1 20  Length = 158000 BitCount = 83 ID = 16777217x
 160.156443 1  1868FFF9x       Rx   d 8 FF F0 FF FF FF FF FF FF  Length = 284000 BitCount = 146 ID = 409534457x
 165.048253 1  1000001x        Rx   d 1 21  Length = 156000 BitCount = 82 ID = 16777217x
 170.049658 1  1000001x        Rx   d 1 22  Length = 154000 BitCount = 81 ID = 16777217x
 170.156287 1  1868FFF9x       Rx   d 8 FF F0 FF FF FF FF FF FF  Length = 284000 BitCount = 146 ID = 409534457x
 175.051415 1  1000001x        Rx   d 1 23  Length = 154000 BitCount = 81 ID = 16777217x
 180.052985 1  1000001x        Rx   d 1 24  Length = 154000 BitCount = 81 ID = 16777217x
 180.156076 1  1868FFF9x       Rx   d 8 FF F0 FF FF FF FF FF FF  Length = 284000 BitCount = 146 ID = 409534457x
 185.053855 1  1000001x        Rx   d 1 25  Length = 154000 BitCount = 81 ID = 16777217x
 190.055127 1  1000001x        Rx   d 1 26  Length = 156000 BitCount = 82 ID = 16777217x
 190.156247 1  1868FFF9x       Rx   d 8 FF F0 FF FF FF FF FF FF  Length = 284000 BitCount = 146 ID = 409534457x
 195.056552 1  1000001x        Rx   d 1 27  Length = 156000 BitCount = 82 ID = 16777217x
 200.058349 1  1000001x        Rx   d 1 28  Length = 154000 BitCount = 81 ID = 16777217x
 200.156366 1  1868FFF9x       Rx   d 8 FF F0 FF FF FF FF FF FF  Length = 284000 BitCount = 146 ID = 409534457x
 205.059841 1  1000001x        Rx   d 1 29  Length = 158000 BitCount = 83 ID = 16777217x
 210.060950 1  1000001x        Rx   d 1 2A  Length = 156000 BitCount = 82 ID = 16777217x
 210.156613 1  1868FFF9x       Rx   d 8 FF F0 FF FF FF FF FF FF  Length = 284000 BitCount = 146 ID = 409534457x
 215.062839 1  1000001x        Rx   d 1 2B  Length = 156000 BitCount = 82 ID = 16777217x
 220.064424 1  1000001x        Rx   d 1 2C  Length = 154000 BitCount = 81 ID = 16777217x
 220.156391 1  1868FFF9x       Rx   d 8 FF F0 FF FF FF FF FF FF  Length = 284000 BitCount = 146 ID = 409534457x
 225.065622 1  1000001x        Rx   d 1 2D  Length = 154000 BitCount = 81 ID = 16777217x
 230.067145 1  1000001x        Rx   d 1 2E  Length = 156000 BitCount = 82 ID = 16777217x
 230.156607 1  1868FFF9x       Rx   d 8 FF F0 FF FF FF FF FF FF  Length = 284000 BitCount = 146 ID = 409534457x
 235.068295 1  1000001x        Rx   d 1 2F  Length = 154000 BitCount = 81 ID = 16777217x
 240.069255 1  1000001x        Rx   d 1 30  Length = 158000 BitCount = 83 ID = 16777217x
 240.156823 1  1868FFF9x       Rx   d 8 FF F0 FF FF FF FF FF FF  Length = 284000 BitCount = 146 ID = 409534457x
 245.070893 1  1000001x        Rx   d 1 31  Length = 154000 BitCount = 81 ID = 16777217x
 250.072564 1  1000001x        Rx   d 1 32  Length = 154000 BitCount = 81 ID = 16777217x
 250.157113 1  1868FFF9x       Rx   d 8 FF F0 FF FF FF FF FF FF  Length = 284000 BitCount = 146 ID = 409534457x
 255.073743 1  1000001x        Rx   d 1 33  Length = 154000 BitCount = 81 ID = 16777217x
 260.074751 1  1000001x        Rx   d 1 34  Length = 154000 BitCount = 81 ID = 16777217x
 260.157297 1  1868FFF9x       Rx   d 8 FF F0 FF FF FF FF FF FF  Length = 284000 BitCount = 146 ID = 409534457x
 265.076288 1  1000001x        Rx   d 1 35  Length = 156000 BitCount = 82 ID = 16777217x
 270.077692 1  1000001x        Rx   d 1 36  Length = 156000 BitCount = 82 ID = 16777217x
 270.157391 1  1868FFF9x       Rx   d 8 FF F0 FF FF FF FF FF FF  Length = 284000 BitCount = 146 ID = 409534457x
 275.079409 1  1000001x        Rx   d 1 37  Length = 158000 BitCount = 83 ID = 16777217x
 280.081152 1  1000001x        Rx   d 1 38  Length = 156000 BitCount = 82 ID = 16777217x
 280.157531 1  1868FFF9x       Rx   d 8 FF F0 FF FF FF FF FF FF  Length = 284000 BitCount = 146 ID = 409534457x
 285.082826 1  1000001x        Rx   d 1 39  Length = 154000 BitCount = 81 ID = 16777217x
 290.084245 1  1000001x        Rx   d 1 3A  Length = 154000 BitCount = 81 ID = 16777217x
 290.157783 1  1868FFF9x       Rx   d 8 FF F0 FF FF FF FF FF FF  Length = 284000 BitCount = 146 ID = 409534457x
 295.085217 1  1000001x        Rx   d 1 3B  Length = 154000 BitCount = 81 ID = 16777217x
 300.086933 1  1000001x        Rx   d 1 3C  Length = 156000 BitCount = 82 ID = 16777217x
 300.157924 1  1868FFF9x       Rx   d 8 FF F0 FF FF FF FF FF FF  Length = 284000 BitCount = 146 ID = 409534457x
 305.087979 1  1000001x        Rx   d 1 3D  Length = 156000 BitCount = 82 ID = 16777217x
 310.089546 1  1000001x        Rx   d 1 3E  Length = 156000 BitCount = 82 ID = 16777217x
 310.158185 1  1868FFF9x       Rx   d 8 FF F0 FF FF FF FF FF FF  Length = 284000 BitCount = 146 ID = 409534457x
 315.090652 1  1000001x        Rx   d 1 3F  Length = 158000 BitCount = 83 ID = 16777217x
 320.092411 1  1000001x        Rx   d 1 40  Length = 156000 BitCount = 82 ID = 16777217x
 320.158490 1  1868FFF9x       Rx   d 8 FF F0 FF FF FF FF FF FF  Length = 284000 BitCount = 146 ID = 409534457x
 325.093443 1  1000001x        Rx   d 1 41  Length = 156000 BitCount = 82 ID = 16777217x
 330.094728 1  1000001x        Rx   d 1 42  Length = 156000 BitCount = 82 ID = 16777217x
 330.158690 1  1868FFF9x       Rx   d 8 FF F0 FF FF FF FF FF FF  Length = 284000 BitCount = 146 ID = 409534457x
 335.095922 1  1000001x        Rx   d 1 43  Length = 154000 BitCount = 81 ID = 16777217x
 340.097372 1  1000001x        Rx   d 1 44  Length = 154000 BitCount = 81 ID = 16777217x
 340.159032 1  1868FFF9x       Rx   d 8 FF F0 FF FF FF FF FF FF  Length = 284000 BitCount = 146 ID = 409534457x
 345.099175 1  1000001x        Rx   d 1 45  Length = 156000 BitCount = 82 ID = 16777217x
 350.100283 1  1000001x        Rx   d 1 46  Length = 154000 BitCount = 81 ID = 16777217x
 350.159219 1  1868FFF9x       Rx   d 8 FF F0 FF FF FF FF FF FF  Length = 284000 BitCount = 146 ID = 409534457x
 355.101409 1  1000001x        Rx   d 1 47  Length = 156000 BitCount = 82 ID = 16777217x
 360.103008 1  1000001x        Rx   d 1 48  Length = 154000 BitCount = 81 ID = 16777217x
 360.159467 1  1868FFF9x       Rx   d 8 FF F0 FF FF FF FF FF FF  Length = 284000 BitCount = 146 ID = 409534457x
 365.104794 1  1000001x        Rx   d 1 49  Length = 154000 BitCount = 81 ID = 16777217x
 370.105903 1  1000001x        Rx   d 1 4A  Length = 156000 BitCount = 82 ID = 16777217x
 370.159609 1  1868FFF9x       Rx   d 8 FF F0 FF FF FF FF FF FF  Length = 284000 BitCount = 146 ID = 409534457x
 375.107630 1  1000001x        Rx   d 1 4B  Length = 156000 BitCount = 82 ID = 16777217x
 380.109567 1  1000001x        Rx   d 1 4C  Length = 156000 BitCount = 82 ID = 16777217x
 380.159735 1  1868FFF9x       Rx   d 8 FF F0 FF FF FF FF FF FF  Length = 284000 BitCount = 146 ID = 409534457x
 385.111205 1  1000001x        Rx   d 1 4D  Length = 154000 BitCount = 81 ID = 16777217x
 390.113130 1  1000001x        Rx   d 1 4E  Length = 154000 BitCount = 81 ID = 16777217x
 390.159909 1  1868FFF9x       Rx   d 8 FF F0 FF FF FF FF FF FF  Length = 284000 BitCount = 146 ID = 409534457x
 395.114835 1  1000001x        Rx   d 1 4F  Length = 154000 BitCount = 81 ID = 16777217x
 400.116077 1  1000001x        Rx   d 1 50  Length = 160000 BitCount = 84 ID = 16777217x
 400.160118 1  1868FFF9x       Rx   d 8 FF F0 FF FF FF FF FF FF  Length = 284000 BitCount = 146 ID = 409534457x
 405.117211 1  1000001x        Rx   d 1 51  Length = 154000 BitCount = 81 ID = 16777217x
 410.119045 1  1000001x        Rx   d 1 52  Length = 154000 BitCount = 81 ID = 16777217x
 410.160304 1  1868FFF9x       Rx   d 8 FF F0 FF FF FF FF FF FF  Length = 284000 BitCount = 146 ID = 409534457x
 415.120254 1  1000001x        Rx   d 1 53  Length = 154000 BitCount = 81 ID = 16777217x
 420.121909 1  1000001x        Rx   d 1 54  Length = 156000 BitCount = 82 ID = 16777217x
 420.160640 1  1868FFF9x       Rx   d 8 FF F0 FF FF FF FF FF FF  Length = 284000 BitCount = 146 ID = 409534457x
 425.123002 1  1000001x        Rx   d 1 55  Length = 154000 BitCount = 81 ID = 16777217x
 430.124244 1  1000001x        Rx   d 1 56  Length = 154000 BitCount = 81 ID = 16777217x
 430.160837 1  1868FFF9x       Rx   d 8 FF F0 FF FF FF FF FF FF  Length = 284000 BitCount = 146 ID = 409534457x
 435.125463 1  1000001x        Rx   d 1 57  Length = 156000 BitCount = 82 ID = 16777217x
 440.126571 1  1000001x        Rx   d 1 58  Length = 156000 BitCount = 82 ID = 16777217x
 440.161096 1  1868FFF9x       Rx   d 8 FF F0 FF FF FF FF FF FF  Length = 284000 BitCount = 146 ID = 409534457x
 445.127532 1  1000001x        Rx   d 1 59  Length = 154000 BitCount = 81 ID = 16777217x
 450.128685 1  1000001x        Rx   d 1 5A  Length = 154000 BitCount = 81 ID = 16777217x
 450.161241 1  1868FFF9x       Rx   d 8 FF F0 FF FF FF FF FF FF  Length = 284000 BitCount = 146 ID = 409534457x
 455.129878 1  1000001x        Rx   d 1 5B  Length = 158000 BitCount = 83 ID = 16777217x
 460.131712 1  1000001x        Rx   d 1 5C  Length = 154000 BitCount = 81 ID = 16777217x
 460.161411 1  1868FFF9x       Rx   d 8 FF F0 FF FF FF FF FF FF  Length = 284000 BitCount = 146 ID = 409534457x
 465.132860 1  1000001x        Rx   d 1 5D  Length = 154000 BitCount = 81 ID = 16777217x
 470.134413 1  1000001x        Rx   d 1 5E  Length = 154000 BitCount = 81 ID = 16777217x
 470.161657 1  1868FFF9x       Rx   d 8 FF F0 FF FF FF FF FF FF  Length = 284000 BitCount = 146 ID = 409534457x
 475.135501 1  1000001x        Rx   d 1 5F  Length = 158000 BitCount = 83 ID = 16777217x
 480.137394 1  1000001x        Rx   d 1 60  Length = 156000 BitCount = 82 ID = 16777217x
 480.161871 1  1868FFF9x       Rx   d 8 FF F0 FF FF FF FF FF FF  Length = 284000 BitCount = 146 ID = 409534457x
 485.138515 1  1000001x        Rx   d 1 61  Length = 154000 BitCount = 81 ID = 16777217x
 490.140245 1  1000001x        Rx   d 1 62  Length = 154000 BitCount = 81 ID = 16777217x
 490.162013 1  1868FFF9x       Rx   d 8 FF F0 FF FF FF FF FF FF  Length = 284000 BitCount = 146 ID = 409534457x
 495.141751 1  1000001x        Rx   d 1 63  Length = 156000 BitCount = 82 ID = 16777217x
 500.142844 1  1000001x        Rx   d 1 64  Length = 154000 BitCount = 81 ID = 16777217x
 500.162154 1  1868FFF9x       Rx   d 8 FF F0 FF FF FF FF FF FF  Length = 284000 BitCount = 146 ID = 409534457x
 505.144541 1  1000001x        Rx   d 1 65  Length = 154000 BitCount = 81 ID = 16777217x
 510.145682 1  1000001x        Rx   d 1 66  Length = 158000 BitCount = 83 ID = 16777217x
 510.162398 1  1868FFF9x       Rx   d 8 FF F0 FF FF FF FF FF FF  Length = 284000 BitCount = 146 ID = 409534457x
 515.146889 1  1000001x        Rx   d 1 67  Length = 154000 BitCount = 81 ID = 16777217x
 520.147917 1  1000001x        Rx   d 1 68  Length = 156000 BitCount = 82 ID = 16777217x
 520.162654 1  1868FFF9x       Rx   d 8 FF F0 FF FF FF FF FF FF  Length = 284000 BitCount = 146 ID = 409534457x
 525.149667 1  1000001x        Rx   d 1 69  Length = 156000 BitCount = 82 ID = 16777217x
 530.150776 1  1000001x        Rx   d 1 6A  Length = 154000 BitCount = 81 ID = 16777217x
 530.162820 1  1868FFF9x       Rx   d 8 FF F0 FF FF FF FF FF FF  Length = 284000 BitCount = 146 ID = 409534457x
 535.152518 1  1000001x        Rx   d 1 6B  Length = 154000 BitCount = 81 ID = 16777217x
 540.154292 1  1000001x        Rx   d 1 6C  Length = 154000 BitCount = 81 ID = 16777217x
 540.163035 1  1868FFF9x       Rx   d 8 FF F0 FF FF FF FF FF FF  Length = 284000 BitCount = 146 ID = 409534457x
 545.156063 1  1000001x        Rx   d 1 6D  Length = 156000 BitCount = 82 ID = 16777217x
 550.157485 1  1000001x        Rx   d 1 6E  Length = 154000 BitCount = 81 ID = 16777217x
 550.163268 1  1868FFF9x       Rx   d 8 FF F0 FF FF FF FF FF FF  Length = 284000 BitCount = 146 ID = 409534457x
 555.158930 1  1000001x        Rx   d 1 6F  Length = 158000 BitCount = 83 ID = 16777217x
 560.160157 1  1000001x        Rx   d 1 70  Length = 154000 BitCount = 81 ID = 16777217x
 560.163468 1  1868FFF9x       Rx   d 8 FF F0 FF FF FF FF FF FF  Length = 284000 BitCount = 146 ID = 409534457x
 565.162135 1  1000001x        Rx   d 1 71  Length = 154000 BitCount = 81 ID = 16777217x
 570.163613 1  1868FFF9x       Rx   d 8 FF F0 FF FF FF FF FF FF  Length = 284000 BitCount = 146 ID = 409534457x
 570.163772 1  1000001x        Rx   d 1 72  Length = 154000 BitCount = 81 ID = 16777217x
 575.164748 1  1000001x        Rx   d 1 73  Length = 154000 BitCount = 81 ID = 16777217x
 580.163769 1  1868FFF9x       Rx   d 8 FF F0 FF FF FF FF FF FF  Length = 284000 BitCount = 146 ID = 409534457x
 580.165779 1  1000001x        Rx   d 1 74  Length = 156000 BitCount = 82 ID = 16777217x
 585.167301 1  1000001x        Rx   d 1 75  Length = 154000 BitCount = 81 ID = 16777217x
 590.164029 1  1868FFF9x       Rx   d 8 FF F0 FF FF FF FF FF FF  Length = 284000 BitCount = 146 ID = 409534457x
 590.168879 1  1000001x        Rx   d 1 76  Length = 154000 BitCount = 81 ID = 16777217x
 595.170565 1  1000001x        Rx   d 1 77  Length = 156000 BitCount = 82 ID = 16777217x
 600.164160 1  1868FFF9x       Rx   d 8 FF F0 FF FF FF FF FF FF  Length = 284000 BitCount = 146 ID = 409534457x
 600.171616 1  1000001x        Rx   d 1 78  Length = 156000 BitCount = 82 ID = 16777217x
 605.173368 1  1000001x        Rx   d 1 79  Length = 154000 BitCount = 81 ID = 16777217x
 610.164398 1  1868FFF9x       Rx   d 8 FF F0 FF FF FF FF FF FF  Length = 284000 BitCount = 146 ID = 409534457x
 610.174960 1  1000001x        Rx   d 1 7A  Length = 156000 BitCount = 82 ID = 16777217x
 615.176809 1  1000001x        Rx   d 1 7B  Length = 154000 BitCount = 81 ID = 16777217x
 620.165309 1  1868FFF9x       Rx   d 8 FF F0 FF FF FF FF FF FF  Length = 284000 BitCount = 146 ID = 409534457x
 620.177915 1  1000001x        Rx   d 1 7C  Length = 156000 BitCount = 82 ID = 16777217x
 625.179142 1  1000001x        Rx   d 1 7D  Length = 158000 BitCount = 83 ID = 16777217x
 630.165495 1  1868FFF9x       Rx   d 8 FF F0 FF FF FF FF FF FF  Length = 284000 BitCount = 146 ID = 409534457x
 630.180632 1  1000001x        Rx   d 1 7E  Length = 156000 BitCount = 82 ID = 16777217x
