date Fri May 14 08:48:52 AM 2021
base hex timestamps absolute
no internal events logged
// version 8.5.0
   0.000000 1  18ECFF2Bx       Rx   d 8 20 0A 00 02 FF CA FE 00  Length = 276000 BitCount = 142 ID = 418185003x
   0.144826 1  18EBFF2Bx       Rx   d 8 01 00 FF 21 F7 E5 01 A8  Length = 272000 BitCount = 140 ID = 418119467x
   0.290479 1  18EBFF2Bx       Rx   d 8 02 00 04 01 FF FF FF FF  Length = 278000 BitCount = 143 ID = 418119467x
   0.525860 1  1868FFF9x       Rx   d 8 FF F0 FF FF FF FF FF FF  Length = 284000 BitCount = 146 ID = 409534457x
   1.000689 1  18ECFF2Bx       Rx   d 8 20 0A 00 02 FF CA FE 00  Length = 276000 BitCount = 142 ID = 418185003x
   1.145514 1  18EBFF2Bx       Rx   d 8 01 00 FF 21 F7 E5 01 A8  Length = 272000 BitCount = 140 ID = 418119467x
   1.291071 1  18EBFF2Bx       Rx   d 8 02 00 04 01 FF FF FF FF  Length = 278000 BitCount = 143 ID = 418119467x
   1.658729 1  1000001x        Rx   d 8 01 00 1E 00 00 00 00 00  Length = 288000 BitCount = 148 ID = 16777217x
   2.000244 1  18ECFF2Bx       Rx   d 8 20 0A 00 02 FF CA FE 00  Length = 276000 BitCount = 142 ID = 418185003x
   2.145415 1  18EBFF2Bx       Rx   d 8 01 00 FF 21 F7 E5 01 A8  Length = 272000 BitCount = 140 ID = 418119467x
   2.291072 1  18EBFF2Bx       Rx   d 8 02 00 04 01 FF FF FF FF  Length = 278000 BitCount = 143 ID = 418119467x
   2.662795 1  1000001x        Rx   d 8 02 00 1E 00 00 00 00 00  Length = 288000 BitCount = 148 ID = 16777217x
   3.000753 1  18ECFF2Bx       Rx   d 8 20 0A 00 02 FF CA FE 00  Length = 276000 BitCount = 142 ID = 418185003x
   3.145722 1  18EBFF2Bx       Rx   d 8 01 00 FF 21 F7 E5 01 A8  Length = 272000 BitCount = 140 ID = 418119467x
   3.291110 1  18EBFF2Bx       Rx   d 8 02 00 04 01 FF FF FF FF  Length = 278000 BitCount = 143 ID = 418119467x
   3.671015 1  1000001x        Rx   d 8 03 00 1E 00 00 00 00 00  Length = 288000 BitCount = 148 ID = 16777217x
   4.000212 1  18ECFF2Bx       Rx   d 8 20 0A 00 02 FF CA FE 00  Length = 276000 BitCount = 142 ID = 418185003x
   4.145674 1  18EBFF2Bx       Rx   d 8 01 00 FF 21 F7 E5 01 A8  Length = 272000 BitCount = 140 ID = 418119467x
   4.291196 1  18EBFF2Bx       Rx   d 8 02 00 04 01 FF FF FF FF  Length = 278000 BitCount = 143 ID = 418119467x
   4.675203 1  1000001x        Rx   d 8 04 00 1E 00 00 00 00 00  Length = 286000 BitCount = 147 ID = 16777217x
   5.000647 1  18ECFF2Bx       Rx   d 8 20 0A 00 02 FF CA FE 00  Length = 276000 BitCount = 142 ID = 418185003x
   5.145564 1  18EBFF2Bx       Rx   d 8 01 00 FF 21 F7 E5 01 A8  Length = 272000 BitCount = 140 ID = 418119467x
   5.291094 1  18EBFF2Bx       Rx   d 8 02 00 04 01 FF FF FF FF  Length = 278000 BitCount = 143 ID = 418119467x
   5.688533 1  1000001x        Rx   d 8 05 00 1E 00 00 00 00 00  Length = 286000 BitCount = 147 ID = 16777217x
   6.000105 1  18ECFF2Bx       Rx   d 8 20 0A 00 02 FF CA FE 00  Length = 276000 BitCount = 142 ID = 418185003x
   6.145372 1  18EBFF2Bx       Rx   d 8 01 00 FF 21 F7 E5 01 A8  Length = 272000 BitCount = 140 ID = 418119467x
   6.290911 1  18EBFF2Bx       Rx   d 8 02 00 04 01 FF FF FF FF  Length = 278000 BitCount = 143 ID = 418119467x
   6.699276 1  1000001x        Rx   d 8 06 00 1E 00 00 00 00 00  Length = 286000 BitCount = 147 ID = 16777217x
   7.000422 1  18ECFF2Bx       Rx   d 8 20 0A 00 02 FF CA FE 00  Length = 276000 BitCount = 142 ID = 418185003x
   7.145374 1  18EBFF2Bx       Rx   d 8 01 00 FF 21 F7 E5 01 A8  Length = 272000 BitCount = 140 ID = 418119467x
   7.290948 1  18EBFF2Bx       Rx   d 8 02 00 04 01 FF FF FF FF  Length = 278000 BitCount = 143 ID = 418119467x
   7.700071 1  1000001x        Rx   d 8 07 00 1E 00 00 00 00 00  Length = 286000 BitCount = 147 ID = 16777217x
   7.999788 1  18ECFF2Bx       Rx   d 8 20 0A 00 02 FF CA FE 00  Length = 276000 BitCount = 142 ID = 418185003x
   8.144657 1  18EBFF2Bx       Rx   d 8 01 00 FF 21 F7 E5 01 A8  Length = 272000 BitCount = 140 ID = 418119467x
   8.290551 1  18EBFF2Bx       Rx   d 8 02 00 04 01 FF FF FF FF  Length = 278000 BitCount = 143 ID = 418119467x
   8.712772 1  1000001x        Rx   d 8 08 00 1E 00 00 00 00 00  Length = 288000 BitCount = 148 ID = 16777217x
   9.000247 1  18ECFF2Bx       Rx   d 8 20 0A 00 02 FF CA FE 00  Length = 276000 BitCount = 142 ID = 418185003x
   9.145344 1  18EBFF2Bx       Rx   d 8 01 00 FF 21 F7 E5 01 A8  Length = 272000 BitCount = 140 ID = 418119467x
   9.290987 1  18EBFF2Bx       Rx   d 8 02 00 04 01 FF FF FF FF  Length = 278000 BitCount = 143 ID = 418119467x
   9.720291 1  1000001x        Rx   d 8 09 00 1E 00 00 00 00 00  Length = 288000 BitCount = 148 ID = 16777217x
   9.999687 1  18ECFF2Bx       Rx   d 8 20 0A 00 02 FF CA FE 00  Length = 276000 BitCount = 142 ID = 418185003x
  10.144459 1  18EBFF2Bx       Rx   d 8 01 00 FF 21 F7 E5 01 A8  Length = 272000 BitCount = 140 ID = 418119467x
  10.289966 1  18EBFF2Bx       Rx   d 8 02 00 04 01 FF FF FF FF  Length = 278000 BitCount = 143 ID = 418119467x
  10.525722 1  1868FFF9x       Rx   d 8 FF F0 FF FF FF FF FF FF  Length = 284000 BitCount = 146 ID = 409534457x
  10.727340 1  1000001x        Rx   d 8 0A 00 1E 00 00 00 00 00  Length = 286000 BitCount = 147 ID = 16777217x
  11.000141 1  18ECFF2Bx       Rx   d 8 20 0A 00 02 FF CA FE 00  Length = 276000 BitCount = 142 ID = 418185003x
  11.145351 1  18EBFF2Bx       Rx   d 8 01 00 FF 21 F7 E5 01 A8  Length = 272000 BitCount = 140 ID = 418119467x
  11.291068 1  18EBFF2Bx       Rx   d 8 02 00 04 01 FF FF FF FF  Length = 278000 BitCount = 143 ID = 418119467x
  11.735011 1  1000001x        Rx   d 8 0B 00 1E 00 00 00 00 00  Length = 288000 BitCount = 148 ID = 16777217x
  11.999594 1  18ECFF2Bx       Rx   d 8 20 0A 00 02 FF CA FE 00  Length = 276000 BitCount = 142 ID = 418185003x
  12.143956 1  18EBFF2Bx       Rx   d 8 01 00 FF 21 F7 E5 01 A8  Length = 272000 BitCount = 140 ID = 418119467x
  12.289526 1  18EBFF2Bx       Rx   d 8 02 00 04 01 FF FF FF FF  Length = 278000 BitCount = 143 ID = 418119467x
  12.736726 1  1000001x        Rx   d 8 0C 00 1E 00 00 00 00 00  Length = 286000 BitCount = 147 ID = 16777217x
  13.000016 1  18ECFF2Bx       Rx   d 8 20 0A 00 02 FF CA FE 00  Length = 276000 BitCount = 142 ID = 418185003x
  13.145116 1  18EBFF2Bx       Rx   d 8 01 00 FF 21 F7 E5 01 A8  Length = 272000 BitCount = 140 ID = 418119467x
  13.290555 1  18EBFF2Bx       Rx   d 8 02 00 04 01 FF FF FF FF  Length = 278000 BitCount = 143 ID = 418119467x
  13.747087 1  1000001x        Rx   d 8 0D 00 1E 00 00 00 00 00  Length = 286000 BitCount = 147 ID = 16777217x
  14.000263 1  18ECFF2Bx       Rx   d 8 20 0A 00 02 FF CA FE 00  Length = 276000 BitCount = 142 ID = 418185003x
  14.145616 1  18EBFF2Bx       Rx   d 8 01 00 FF 21 F7 E5 01 A8  Length = 272000 BitCount = 140 ID = 418119467x
  14.291346 1  18EBFF2Bx       Rx   d 8 02 00 04 01 FF FF FF FF  Length = 278000 BitCount = 143 ID = 418119467x
  14.753728 1  1000001x        Rx   d 8 0E 00 1E 00 00 00 00 00  Length = 286000 BitCount = 147 ID = 16777217x
  15.000211 1  18ECFF2Bx       Rx   d 8 20 0A 00 02 FF CA FE 00  Length = 276000 BitCount = 142 ID = 418185003x
  15.145208 1  18EBFF2Bx       Rx   d 8 01 00 FF 21 F7 E5 01 A8  Length = 272000 BitCount = 140 ID = 418119467x
  15.290572 1  18EBFF2Bx       Rx   d 8 02 00 04 01 FF FF FF FF  Length = 278000 BitCount = 143 ID = 418119467x
  15.769215 1  1000001x        Rx   d 8 0F 00 1E 00 00 00 00 00  Length = 286000 BitCount = 147 ID = 16777217x
  16.000426 1  18ECFF2Bx       Rx   d 8 20 0A 00 02 FF CA FE 00  Length = 276000 BitCount = 142 ID = 418185003x
  16.147363 1  18EBFF2Bx       Rx   d 8 01 00 FF 21 F7 E5 01 A8  Length = 272000 BitCount = 140 ID = 418119467x
  16.294636 1  18EBFF2Bx       Rx   d 8 02 00 04 01 FF FF FF FF  Length = 278000 BitCount = 143 ID = 418119467x
  16.775690 1  1000001x        Rx   d 8 10 00 1E 00 00 00 00 00  Length = 290000 BitCount = 149 ID = 16777217x
  16.999889 1  18ECFF2Bx       Rx   d 8 20 0A 00 02 FF CA FE 00  Length = 276000 BitCount = 142 ID = 418185003x
  17.146986 1  18EBFF2Bx       Rx   d 8 01 00 FF 21 F7 E5 01 A8  Length = 272000 BitCount = 140 ID = 418119467x
  17.298597 1  18EBFF2Bx       Rx   d 8 02 00 04 01 FF FF FF FF  Length = 278000 BitCount = 143 ID = 418119467x
  17.446075 1  714             Rx   d 8 03 19 02 AC 81 81 81 81  Length = 228000 BitCount = 118 ID = 1812
  17.778255 1  1000001x        Rx   d 8 11 00 1E 00 00 00 00 00  Length = 286000 BitCount = 147 ID = 16777217x
  18.001694 1  18ECFF2Bx       Rx   d 8 20 0A 00 02 FF CA FE 00  Length = 276000 BitCount = 142 ID = 418185003x
  18.148537 1  18EBFF2Bx       Rx   d 8 01 00 FF 21 F7 E5 01 A8  Length = 272000 BitCount = 140 ID = 418119467x
  18.296332 1  18EBFF2Bx       Rx   d 8 02 00 04 01 FF FF FF FF  Length = 278000 BitCount = 143 ID = 418119467x
  18.788690 1  1000001x        Rx   d 8 12 00 1E 00 00 00 00 00  Length = 286000 BitCount = 147 ID = 16777217x
  19.000791 1  18ECFF2Bx       Rx   d 8 20 0A 00 02 FF CA FE 00  Length = 276000 BitCount = 142 ID = 418185003x
  19.150640 1  18EBFF2Bx       Rx   d 8 01 00 FF 21 F7 E5 01 A8  Length = 272000 BitCount = 140 ID = 418119467x
  19.301062 1  18EBFF2Bx       Rx   d 8 02 00 04 01 FF FF FF FF  Length = 278000 BitCount = 143 ID = 418119467x
  19.802648 1  1000001x        Rx   d 8 13 00 1E 00 00 00 00 00  Length = 288000 BitCount = 148 ID = 16777217x
  20.000429 1  18ECFF2Bx       Rx   d 8 20 0A 00 02 FF CA FE 00  Length = 276000 BitCount = 142 ID = 418185003x
  20.151713 1  18EBFF2Bx       Rx   d 8 01 00 FF 21 F7 E5 01 A8  Length = 272000 BitCount = 140 ID = 418119467x
  20.303903 1  18EBFF2Bx       Rx   d 8 02 00 04 01 FF FF FF FF  Length = 278000 BitCount = 143 ID = 418119467x
  20.526382 1  1868FFF9x       Rx   d 8 FF F0 FF FF FF FF FF FF  Length = 284000 BitCount = 146 ID = 409534457x
  20.811971 1  1000001x        Rx   d 8 14 00 1E 00 00 00 00 00  Length = 286000 BitCount = 147 ID = 16777217x
  21.000761 1  18ECFF2Bx       Rx   d 8 20 0A 00 02 FF CA FE 00  Length = 276000 BitCount = 142 ID = 418185003x
  21.151275 1  18EBFF2Bx       Rx   d 8 01 00 FF 21 F7 E5 01 A8  Length = 272000 BitCount = 140 ID = 418119467x
  21.302165 1  18EBFF2Bx       Rx   d 8 02 00 04 01 FF FF FF FF  Length = 278000 BitCount = 143 ID = 418119467x
  21.817724 1  1000001x        Rx   d 8 15 00 1E 00 00 00 00 00  Length = 290000 BitCount = 149 ID = 16777217x
  22.000220 1  18ECFF2Bx       Rx   d 8 20 0A 00 02 FF CA FE 00  Length = 276000 BitCount = 142 ID = 418185003x
  22.145813 1  18EBFF2Bx       Rx   d 8 01 00 FF 21 F7 E5 01 A8  Length = 272000 BitCount = 140 ID = 418119467x
  22.291937 1  18EBFF2Bx       Rx   d 8 02 00 04 01 FF FF FF FF  Length = 278000 BitCount = 143 ID = 418119467x
  22.826697 1  1000001x        Rx   d 8 16 00 1E 00 00 00 00 00  Length = 288000 BitCount = 148 ID = 16777217x
  22.999754 1  18ECFF2Bx       Rx   d 8 20 0A 00 02 FF CA FE 00  Length = 276000 BitCount = 142 ID = 418185003x
  23.144503 1  18EBFF2Bx       Rx   d 8 01 00 FF 21 F7 E5 01 A8  Length = 272000 BitCount = 140 ID = 418119467x
  23.290127 1  18EBFF2Bx       Rx   d 8 02 00 04 01 FF FF FF FF  Length = 278000 BitCount = 143 ID = 418119467x
  23.836438 1  1000001x        Rx   d 8 17 00 1E 00 00 00 00 00  Length = 288000 BitCount = 148 ID = 16777217x
  23.999246 1  18ECFF2Bx       Rx   d 8 20 0A 00 02 FF CA FE 00  Length = 276000 BitCount = 142 ID = 418185003x
  24.143888 1  18EBFF2Bx       Rx   d 8 01 00 FF 21 F7 E5 01 A8  Length = 272000 BitCount = 140 ID = 418119467x
  24.289533 1  18EBFF2Bx       Rx   d 8 02 00 04 01 FF FF FF FF  Length = 278000 BitCount = 143 ID = 418119467x
  24.842124 1  1000001x        Rx   d 8 18 00 1E 00 00 00 00 00  Length = 286000 BitCount = 147 ID = 16777217x
  24.999759 1  18ECFF2Bx       Rx   d 8 20 0A 00 02 FF CA FE 00  Length = 276000 BitCount = 142 ID = 418185003x
  25.144582 1  18EBFF2Bx       Rx   d 8 01 00 FF 21 F7 E5 01 A8  Length = 272000 BitCount = 140 ID = 418119467x
  25.290239 1  18EBFF2Bx       Rx   d 8 02 00 04 01 FF FF FF FF  Length = 278000 BitCount = 143 ID = 418119467x
  25.845556 1  1000001x        Rx   d 8 19 00 1E 00 00 00 00 00  Length = 286000 BitCount = 147 ID = 16777217x
  25.999163 1  18ECFF2Bx       Rx   d 8 20 0A 00 02 FF CA FE 00  Length = 276000 BitCount = 142 ID = 418185003x
  26.143826 1  18EBFF2Bx       Rx   d 8 01 00 FF 21 F7 E5 01 A8  Length = 272000 BitCount = 140 ID = 418119467x
  26.289349 1  18EBFF2Bx       Rx   d 8 02 00 04 01 FF FF FF FF  Length = 278000 BitCount = 143 ID = 418119467x
  26.849673 1  1000001x        Rx   d 8 1A 00 1E 00 00 00 00 00  Length = 288000 BitCount = 148 ID = 16777217x
  26.999795 1  18ECFF2Bx       Rx   d 8 20 0A 00 02 FF CA FE 00  Length = 276000 BitCount = 142 ID = 418185003x
  27.144932 1  18EBFF2Bx       Rx   d 8 01 00 FF 21 F7 E5 01 A8  Length = 272000 BitCount = 140 ID = 418119467x
  27.290467 1  18EBFF2Bx       Rx   d 8 02 00 04 01 FF FF FF FF  Length = 278000 BitCount = 143 ID = 418119467x
  27.858176 1  1000001x        Rx   d 8 1B 00 1E 00 00 00 00 00  Length = 286000 BitCount = 147 ID = 16777217x
  28.000811 1  18ECFF2Bx       Rx   d 8 20 0A 00 02 FF CA FE 00  Length = 276000 BitCount = 142 ID = 418185003x
  28.146379 1  18EBFF2Bx       Rx   d 8 01 00 FF 21 F7 E5 01 A8  Length = 272000 BitCount = 140 ID = 418119467x
  28.292445 1  18EBFF2Bx       Rx   d 8 02 00 04 01 FF FF FF FF  Length = 278000 BitCount = 143 ID = 418119467x
  28.870300 1  1000001x        Rx   d 8 1C 00 1E 00 00 00 00 00  Length = 288000 BitCount = 148 ID = 16777217x
  28.999276 1  18ECFF2Bx       Rx   d 8 20 0A 00 02 FF CA FE 00  Length = 276000 BitCount = 142 ID = 418185003x
  29.144274 1  18EBFF2Bx       Rx   d 8 01 00 FF 21 F7 E5 01 A8  Length = 272000 BitCount = 140 ID = 418119467x
  29.289918 1  18EBFF2Bx       Rx   d 8 02 00 04 01 FF FF FF FF  Length = 278000 BitCount = 143 ID = 418119467x
  29.879473 1  1000001x        Rx   d 8 1D 00 1E 00 00 00 00 00  Length = 286000 BitCount = 147 ID = 16777217x
  29.999753 1  18ECFF2Bx       Rx   d 8 20 0A 00 02 FF CA FE 00  Length = 276000 BitCount = 142 ID = 418185003x
  30.145181 1  18EBFF2Bx       Rx   d 8 01 00 FF 21 F7 E5 01 A8  Length = 272000 BitCount = 140 ID = 418119467x
  30.290547 1  18EBFF2Bx       Rx   d 8 02 00 04 01 FF FF FF FF  Length = 278000 BitCount = 143 ID = 418119467x
  30.526208 1  1868FFF9x       Rx   d 8 FF F0 FF FF FF FF FF FF  Length = 284000 BitCount = 146 ID = 409534457x
  30.889989 1  1000001x        Rx   d 8 1E 00 1E 00 00 00 00 00  Length = 288000 BitCount = 148 ID = 16777217x
  30.999170 1  18ECFF2Bx       Rx   d 8 20 0A 00 02 FF CA FE 00  Length = 276000 BitCount = 142 ID = 418185003x
  31.144986 1  18EBFF2Bx       Rx   d 8 01 00 FF 21 F7 E5 01 A8  Length = 272000 BitCount = 140 ID = 418119467x
  31.290658 1  18EBFF2Bx       Rx   d 8 02 00 04 01 FF FF FF FF  Length = 278000 BitCount = 143 ID = 418119467x
  31.904364 1  1000001x        Rx   d 8 1F 00 1E 00 00 00 00 00  Length = 288000 BitCount = 148 ID = 16777217x
  31.999715 1  18ECFF2Bx       Rx   d 8 20 0A 00 02 FF CA FE 00  Length = 276000 BitCount = 142 ID = 418185003x
  32.145842 1  18EBFF2Bx       Rx   d 8 01 00 FF 21 F7 E5 01 A8  Length = 272000 BitCount = 140 ID = 418119467x
  32.291389 1  18EBFF2Bx       Rx   d 8 02 00 04 01 FF FF FF FF  Length = 278000 BitCount = 143 ID = 418119467x
  32.909861 1  1000001x        Rx   d 8 20 00 1E 00 00 00 00 00  Length = 290000 BitCount = 149 ID = 16777217x
  32.999046 1  18ECFF2Bx       Rx   d 8 20 0A 00 02 FF CA FE 00  Length = 276000 BitCount = 142 ID = 418185003x
  33.144957 1  18EBFF2Bx       Rx   d 8 01 00 FF 21 F7 E5 01 A8  Length = 272000 BitCount = 140 ID = 418119467x
  33.290241 1  18EBFF2Bx       Rx   d 8 02 00 04 01 FF FF FF FF  Length = 278000 BitCount = 143 ID = 418119467x
  33.913563 1  1000001x        Rx   d 8 21 00 1E 00 00 00 00 00  Length = 286000 BitCount = 147 ID = 16777217x
  33.999426 1  18ECFF2Bx       Rx   d 8 20 0A 00 02 FF CA FE 00  Length = 276000 BitCount = 142 ID = 418185003x
  34.143938 1  18EBFF2Bx       Rx   d 8 01 00 FF 21 F7 E5 01 A8  Length = 272000 BitCount = 140 ID = 418119467x
  34.289906 1  18EBFF2Bx       Rx   d 8 02 00 04 01 FF FF FF FF  Length = 278000 BitCount = 143 ID = 418119467x
  34.918678 1  1000001x        Rx   d 8 22 00 1E 00 00 00 00 00  Length = 286000 BitCount = 147 ID = 16777217x
  34.998793 1  18ECFF2Bx       Rx   d 8 20 0A 00 02 FF CA FE 00  Length = 276000 BitCount = 142 ID = 418185003x
  35.143774 1  18EBFF2Bx       Rx   d 8 01 00 FF 21 F7 E5 01 A8  Length = 272000 BitCount = 140 ID = 418119467x
  35.289578 1  18EBFF2Bx       Rx   d 8 02 00 04 01 FF FF FF FF  Length = 278000 BitCount = 143 ID = 418119467x
  35.930989 1  1000001x        Rx   d 8 23 00 1E 00 00 00 00 00  Length = 286000 BitCount = 147 ID = 16777217x
  35.999129 1  18ECFF2Bx       Rx   d 8 20 0A 00 02 FF CA FE 00  Length = 276000 BitCount = 142 ID = 418185003x
  36.144480 1  18EBFF2Bx       Rx   d 8 01 00 FF 21 F7 E5 01 A8  Length = 272000 BitCount = 140 ID = 418119467x
  36.290047 1  18EBFF2Bx       Rx   d 8 02 00 04 01 FF FF FF FF  Length = 278000 BitCount = 143 ID = 418119467x
  36.942406 1  1000001x        Rx   d 8 24 00 1E 00 00 00 00 00  Length = 286000 BitCount = 147 ID = 16777217x
  36.998482 1  18ECFF2Bx       Rx   d 8 20 0A 00 02 FF CA FE 00  Length = 276000 BitCount = 142 ID = 418185003x
  37.143362 1  18EBFF2Bx       Rx   d 8 01 00 FF 21 F7 E5 01 A8  Length = 272000 BitCount = 140 ID = 418119467x
  37.288984 1  18EBFF2Bx       Rx   d 8 02 00 04 01 FF FF FF FF  Length = 278000 BitCount = 143 ID = 418119467x
  37.947962 1  1000001x        Rx   d 8 25 00 1E 00 00 00 00 00  Length = 288000 BitCount = 148 ID = 16777217x
  37.998986 1  18ECFF2Bx       Rx   d 8 20 0A 00 02 FF CA FE 00  Length = 276000 BitCount = 142 ID = 418185003x
  38.144378 1  18EBFF2Bx       Rx   d 8 01 00 FF 21 F7 E5 01 A8  Length = 272000 BitCount = 140 ID = 418119467x
  38.290167 1  18EBFF2Bx       Rx   d 8 02 00 04 01 FF FF FF FF  Length = 278000 BitCount = 143 ID = 418119467x
  38.952331 1  1000001x        Rx   d 8 26 00 1E 00 00 00 00 00  Length = 286000 BitCount = 147 ID = 16777217x
  38.999319 1  18ECFF2Bx       Rx   d 8 20 0A 00 02 FF CA FE 00  Length = 276000 BitCount = 142 ID = 418185003x
  39.145205 1  18EBFF2Bx       Rx   d 8 01 00 FF 21 F7 E5 01 A8  Length = 272000 BitCount = 140 ID = 418119467x
  39.290693 1  18EBFF2Bx       Rx   d 8 02 00 04 01 FF FF FF FF  Length = 278000 BitCount = 143 ID = 418119467x
  39.964802 1  1000001x        Rx   d 8 27 00 1E 00 00 00 00 00  Length = 286000 BitCount = 147 ID = 16777217x
  39.998626 1  18ECFF2Bx       Rx   d 8 20 0A 00 02 FF CA FE 00  Length = 276000 BitCount = 142 ID = 418185003x
  40.144015 1  18EBFF2Bx       Rx   d 8 01 00 FF 21 F7 E5 01 A8  Length = 272000 BitCount = 140 ID = 418119467x
  40.290005 1  18EBFF2Bx       Rx   d 8 02 00 04 01 FF FF FF FF  Length = 278000 BitCount = 143 ID = 418119467x
  40.526620 1  1868FFF9x       Rx   d 8 FF F0 FF FF FF FF FF FF  Length = 284000 BitCount = 146 ID = 409534457x
  40.970631 1  1000001x        Rx   d 8 28 00 1E 00 00 00 00 00  Length = 288000 BitCount = 148 ID = 16777217x
  40.999002 1  18ECFF2Bx       Rx   d 8 20 0A 00 02 FF CA FE 00  Length = 276000 BitCount = 142 ID = 418185003x
  41.143859 1  18EBFF2Bx       Rx   d 8 01 00 FF 21 F7 E5 01 A8  Length = 272000 BitCount = 140 ID = 418119467x
  41.289530 1  18EBFF2Bx       Rx   d 8 02 00 04 01 FF FF FF FF  Length = 278000 BitCount = 143 ID = 418119467x
  41.974564 1  1000001x        Rx   d 8 29 00 1E 00 00 00 00 00  Length = 286000 BitCount = 147 ID = 16777217x
  41.998670 1  18ECFF2Bx       Rx   d 8 20 0A 00 02 FF CA FE 00  Length = 276000 BitCount = 142 ID = 418185003x
  42.143973 1  18EBFF2Bx       Rx   d 8 01 00 FF 21 F7 E5 01 A8  Length = 272000 BitCount = 140 ID = 418119467x
  42.289579 1  18EBFF2Bx       Rx   d 8 02 00 04 01 FF FF FF FF  Length = 278000 BitCount = 143 ID = 418119467x
  42.977018 1  1000001x        Rx   d 8 2A 00 1E 00 00 00 00 00  Length = 286000 BitCount = 147 ID = 16777217x
  42.998088 1  18ECFF2Bx       Rx   d 8 20 0A 00 02 FF CA FE 00  Length = 276000 BitCount = 142 ID = 418185003x
  43.142851 1  18EBFF2Bx       Rx   d 8 01 00 FF 21 F7 E5 01 A8  Length = 272000 BitCount = 140 ID = 418119467x
  43.288449 1  18EBFF2Bx       Rx   d 8 02 00 04 01 FF FF FF FF  Length = 278000 BitCount = 143 ID = 418119467x
  43.989699 1  1000001x        Rx   d 8 2B 00 1E 00 00 00 00 00  Length = 286000 BitCount = 147 ID = 16777217x
  43.998527 1  18ECFF2Bx       Rx   d 8 20 0A 00 02 FF CA FE 00  Length = 276000 BitCount = 142 ID = 418185003x
  44.143431 1  18EBFF2Bx       Rx   d 8 01 00 FF 21 F7 E5 01 A8  Length = 272000 BitCount = 140 ID = 418119467x
  44.288916 1  18EBFF2Bx       Rx   d 8 02 00 04 01 FF FF FF FF  Length = 278000 BitCount = 143 ID = 418119467x
  44.990751 1  1000001x        Rx   d 8 2C 00 1E 00 00 00 00 00  Length = 288000 BitCount = 148 ID = 16777217x
  44.999120 1  18ECFF2Bx       Rx   d 8 20 0A 00 02 FF CA FE 00  Length = 276000 BitCount = 142 ID = 418185003x
  45.144318 1  18EBFF2Bx       Rx   d 8 01 00 FF 21 F7 E5 01 A8  Length = 272000 BitCount = 140 ID = 418119467x
  45.290055 1  18EBFF2Bx       Rx   d 8 02 00 04 01 FF FF FF FF  Length = 278000 BitCount = 143 ID = 418119467x
  45.998390 1  18ECFF2Bx       Rx   d 8 20 0A 00 02 FF CA FE 00  Length = 276000 BitCount = 142 ID = 418185003x
  45.999457 1  1000001x        Rx   d 8 2D 00 1E 00 00 00 00 00  Length = 286000 BitCount = 147 ID = 16777217x
  46.143926 1  18EBFF2Bx       Rx   d 8 01 00 FF 21 F7 E5 01 A8  Length = 272000 BitCount = 140 ID = 418119467x
  46.289812 1  18EBFF2Bx       Rx   d 8 02 00 04 01 FF FF FF FF  Length = 278000 BitCount = 143 ID = 418119467x
  46.998777 1  18ECFF2Bx       Rx   d 8 20 0A 00 02 FF CA FE 00  Length = 276000 BitCount = 142 ID = 418185003x
  47.006275 1  1000001x        Rx   d 8 2E 00 1E 00 00 00 00 00  Length = 286000 BitCount = 147 ID = 16777217x
  47.143939 1  18EBFF2Bx       Rx   d 8 01 00 FF 21 F7 E5 01 A8  Length = 272000 BitCount = 140 ID = 418119467x
  47.289364 1  18EBFF2Bx       Rx   d 8 02 00 04 01 FF FF FF FF  Length = 278000 BitCount = 143 ID = 418119467x
  47.998127 1  18ECFF2Bx       Rx   d 8 20 0A 00 02 FF CA FE 00  Length = 276000 BitCount = 142 ID = 418185003x
  48.015295 1  1000001x        Rx   d 8 2F 00 1E 00 00 00 00 00  Length = 288000 BitCount = 148 ID = 16777217x
  48.143752 1  18EBFF2Bx       Rx   d 8 01 00 FF 21 F7 E5 01 A8  Length = 272000 BitCount = 140 ID = 418119467x
  48.289585 1  18EBFF2Bx       Rx   d 8 02 00 04 01 FF FF FF FF  Length = 278000 BitCount = 143 ID = 418119467x
  48.998519 1  18ECFF2Bx       Rx   d 8 20 0A 00 02 FF CA FE 00  Length = 276000 BitCount = 142 ID = 418185003x
  49.033031 1  1000001x        Rx   d 8 30 00 1E 00 00 00 00 00  Length = 290000 BitCount = 149 ID = 16777217x
  49.143740 1  18EBFF2Bx       Rx   d 8 01 00 FF 21 F7 E5 01 A8  Length = 272000 BitCount = 140 ID = 418119467x
  49.289417 1  18EBFF2Bx       Rx   d 8 02 00 04 01 FF FF FF FF  Length = 278000 BitCount = 143 ID = 418119467x
  49.998881 1  18ECFF2Bx       Rx   d 8 20 0A 00 02 FF CA FE 00  Length = 276000 BitCount = 142 ID = 418185003x
  50.039136 1  1000001x        Rx   d 8 31 00 1E 00 00 00 00 00  Length = 286000 BitCount = 147 ID = 16777217x
  50.144154 1  18EBFF2Bx       Rx   d 8 01 00 FF 21 F7 E5 01 A8  Length = 272000 BitCount = 140 ID = 418119467x
  50.289922 1  18EBFF2Bx       Rx   d 8 02 00 04 01 FF FF FF FF  Length = 278000 BitCount = 143 ID = 418119467x
  50.527002 1  1868FFF9x       Rx   d 8 FF F0 FF FF FF FF FF FF  Length = 284000 BitCount = 146 ID = 409534457x
  50.998348 1  18ECFF2Bx       Rx   d 8 20 0A 00 02 FF CA FE 00  Length = 276000 BitCount = 142 ID = 418185003x
  51.044103 1  1000001x        Rx   d 8 32 00 1E 00 00 00 00 00  Length = 290000 BitCount = 149 ID = 16777217x
  51.143755 1  18EBFF2Bx       Rx   d 8 01 00 FF 21 F7 E5 01 A8  Length = 272000 BitCount = 140 ID = 418119467x
  51.289359 1  18EBFF2Bx       Rx   d 8 02 00 04 01 FF FF FF FF  Length = 278000 BitCount = 143 ID = 418119467x
  51.998709 1  18ECFF2Bx       Rx   d 8 20 0A 00 02 FF CA FE 00  Length = 276000 BitCount = 142 ID = 418185003x
  52.055064 1  1000001x        Rx   d 8 33 00 1E 00 00 00 00 00  Length = 286000 BitCount = 147 ID = 16777217x
  52.143930 1  18EBFF2Bx       Rx   d 8 01 00 FF 21 F7 E5 01 A8  Length = 272000 BitCount = 140 ID = 418119467x
  52.290480 1  18EBFF2Bx       Rx   d 8 02 00 04 01 FF FF FF FF  Length = 278000 BitCount = 143 ID = 418119467x
  52.998110 1  18ECFF2Bx       Rx   d 8 20 0A 00 02 FF CA FE 00  Length = 276000 BitCount = 142 ID = 418185003x
  53.065293 1  1000001x        Rx   d 8 34 00 1E 00 00 00 00 00  Length = 290000 BitCount = 149 ID = 16777217x
  53.143678 1  18EBFF2Bx       Rx   d 8 01 00 FF 21 F7 E5 01 A8  Length = 272000 BitCount = 140 ID = 418119467x
  53.289429 1  18EBFF2Bx       Rx   d 8 02 00 04 01 FF FF FF FF  Length = 278000 BitCount = 143 ID = 418119467x
  53.998439 1  18ECFF2Bx       Rx   d 8 20 0A 00 02 FF CA FE 00  Length = 276000 BitCount = 142 ID = 418185003x
  54.070449 1  1000001x        Rx   d 8 35 00 1E 00 00 00 00 00  Length = 286000 BitCount = 147 ID = 16777217x
  54.143289 1  18EBFF2Bx       Rx   d 8 01 00 FF 21 F7 E5 01 A8  Length = 272000 BitCount = 140 ID = 418119467x
  54.288846 1  18EBFF2Bx       Rx   d 8 02 00 04 01 FF FF FF FF  Length = 278000 BitCount = 143 ID = 418119467x
  54.997770 1  18ECFF2Bx       Rx   d 8 20 0A 00 02 FF CA FE 00  Length = 276000 BitCount = 142 ID = 418185003x
  55.078878 1  1000001x        Rx   d 8 36 00 1E 00 00 00 00 00  Length = 288000 BitCount = 148 ID = 16777217x
  55.143354 1  18EBFF2Bx       Rx   d 8 01 00 FF 21 F7 E5 01 A8  Length = 272000 BitCount = 140 ID = 418119467x
  55.289145 1  18EBFF2Bx       Rx   d 8 02 00 04 01 FF FF FF FF  Length = 278000 BitCount = 143 ID = 418119467x
  55.998164 1  18ECFF2Bx       Rx   d 8 20 0A 00 02 FF CA FE 00  Length = 276000 BitCount = 142 ID = 418185003x
  56.090863 1  1000001x        Rx   d 8 37 00 1E 00 00 00 00 00  Length = 286000 BitCount = 147 ID = 16777217x
  56.143351 1  18EBFF2Bx       Rx   d 8 01 00 FF 21 F7 E5 01 A8  Length = 272000 BitCount = 140 ID = 418119467x
  56.289211 1  18EBFF2Bx       Rx   d 8 02 00 04 01 FF FF FF FF  Length = 278000 BitCount = 143 ID = 418119467x
  56.998746 1  18ECFF2Bx       Rx   d 8 20 0A 00 02 FF CA FE 00  Length = 276000 BitCount = 142 ID = 418185003x
  57.101421 1  1000001x        Rx   d 8 38 00 1E 00 00 00 00 00  Length = 286000 BitCount = 147 ID = 16777217x
  57.143705 1  18EBFF2Bx       Rx   d 8 01 00 FF 21 F7 E5 01 A8  Length = 272000 BitCount = 140 ID = 418119467x
  57.289422 1  18EBFF2Bx       Rx   d 8 02 00 04 01 FF FF FF FF  Length = 278000 BitCount = 143 ID = 418119467x
  57.998134 1  18ECFF2Bx       Rx   d 8 20 0A 00 02 FF CA FE 00  Length = 276000 BitCount = 142 ID = 418185003x
  58.103576 1  1000001x        Rx   d 8 39 00 1E 00 00 00 00 00  Length = 288000 BitCount = 148 ID = 16777217x
  58.143264 1  18EBFF2Bx       Rx   d 8 01 00 FF 21 F7 E5 01 A8  Length = 272000 BitCount = 140 ID = 418119467x
  58.289221 1  18EBFF2Bx       Rx   d 8 02 00 04 01 FF FF FF FF  Length = 278000 BitCount = 143 ID = 418119467x
  58.998689 1  18ECFF2Bx       Rx   d 8 20 0A 00 02 FF CA FE 00  Length = 276000 BitCount = 142 ID = 418185003x
  59.111428 1  1000001x        Rx   d 8 3A 00 1E 00 00 00 00 00  Length = 286000 BitCount = 147 ID = 16777217x
  59.143910 1  18EBFF2Bx       Rx   d 8 01 00 FF 21 F7 E5 01 A8  Length = 272000 BitCount = 140 ID = 418119467x
  59.289646 1  18EBFF2Bx       Rx   d 8 02 00 04 01 FF FF FF FF  Length = 278000 BitCount = 143 ID = 418119467x
  59.997918 1  18ECFF2Bx       Rx   d 8 20 0A 00 02 FF CA FE 00  Length = 276000 BitCount = 142 ID = 418185003x
  60.121406 1  1000001x        Rx   d 8 3B 00 1E 00 00 00 00 00  Length = 286000 BitCount = 147 ID = 16777217x
  60.143202 1  18EBFF2Bx       Rx   d 8 01 00 FF 21 F7 E5 01 A8  Length = 272000 BitCount = 140 ID = 418119467x
  60.288967 1  18EBFF2Bx       Rx   d 8 02 00 04 01 FF FF FF FF  Length = 278000 BitCount = 143 ID = 418119467x
  60.527231 1  1868FFF9x       Rx   d 8 FF F0 FF FF FF FF FF FF  Length = 284000 BitCount = 146 ID = 409534457x
  60.998390 1  18ECFF2Bx       Rx   d 8 20 0A 00 02 FF CA FE 00  Length = 276000 BitCount = 142 ID = 418185003x
  61.124597 1  1000001x        Rx   d 8 3C 00 1E 00 00 00 00 00  Length = 288000 BitCount = 148 ID = 16777217x
  61.143310 1  18EBFF2Bx       Rx   d 8 01 00 FF 21 F7 E5 01 A8  Length = 272000 BitCount = 140 ID = 418119467x
  61.289048 1  18EBFF2Bx       Rx   d 8 02 00 04 01 FF FF FF FF  Length = 278000 BitCount = 143 ID = 418119467x
  61.997805 1  18ECFF2Bx       Rx   d 8 20 0A 00 02 FF CA FE 00  Length = 276000 BitCount = 142 ID = 418185003x
  62.126369 1  1000001x        Rx   d 8 3D 00 1E 00 00 00 00 00  Length = 290000 BitCount = 149 ID = 16777217x
  62.142387 1  18EBFF2Bx       Rx   d 8 01 00 FF 21 F7 E5 01 A8  Length = 272000 BitCount = 140 ID = 418119467x
  62.287858 1  18EBFF2Bx       Rx   d 8 02 00 04 01 FF FF FF FF  Length = 278000 BitCount = 143 ID = 418119467x
  62.998193 1  18ECFF2Bx       Rx   d 8 20 0A 00 02 FF CA FE 00  Length = 276000 BitCount = 142 ID = 418185003x
  63.140407 1  1000001x        Rx   d 8 3E 00 1E 00 00 00 00 00  Length = 288000 BitCount = 148 ID = 16777217x
  63.143697 1  18EBFF2Bx       Rx   d 8 01 00 FF 21 F7 E5 01 A8  Length = 272000 BitCount = 140 ID = 418119467x
  63.289354 1  18EBFF2Bx       Rx   d 8 02 00 04 01 FF FF FF FF  Length = 278000 BitCount = 143 ID = 418119467x
  63.997685 1  18ECFF2Bx       Rx   d 8 20 0A 00 02 FF CA FE 00  Length = 276000 BitCount = 142 ID = 418185003x
  64.142249 1  18EBFF2Bx       Rx   d 8 01 00 FF 21 F7 E5 01 A8  Length = 272000 BitCount = 140 ID = 418119467x
  64.154098 1  1000001x        Rx   d 8 3F 00 1E 00 00 00 00 00  Length = 288000 BitCount = 148 ID = 16777217x
  64.288172 1  18EBFF2Bx       Rx   d 8 02 00 04 01 FF FF FF FF  Length = 278000 BitCount = 143 ID = 418119467x
  64.998496 1  18ECFF2Bx       Rx   d 8 20 0A 00 02 FF CA FE 00  Length = 276000 BitCount = 142 ID = 418185003x
  65.142858 1  18EBFF2Bx       Rx   d 8 01 00 FF 21 F7 E5 01 A8  Length = 272000 BitCount = 140 ID = 418119467x
  65.163121 1  1000001x        Rx   d 8 40 00 1E 00 00 00 00 00  Length = 286000 BitCount = 147 ID = 16777217x
  65.288503 1  18EBFF2Bx       Rx   d 8 02 00 04 01 FF FF FF FF  Length = 278000 BitCount = 143 ID = 418119467x
  65.997904 1  18ECFF2Bx       Rx   d 8 20 0A 00 02 FF CA FE 00  Length = 276000 BitCount = 142 ID = 418185003x
  66.143427 1  18EBFF2Bx       Rx   d 8 01 00 FF 21 F7 E5 01 A8  Length = 272000 BitCount = 140 ID = 418119467x
  66.168112 1  1000001x        Rx   d 8 41 00 1E 00 00 00 00 00  Length = 286000 BitCount = 147 ID = 16777217x
  66.288936 1  18EBFF2Bx       Rx   d 8 02 00 04 01 FF FF FF FF  Length = 278000 BitCount = 143 ID = 418119467x
  66.998485 1  18ECFF2Bx       Rx   d 8 20 0A 00 02 FF CA FE 00  Length = 276000 BitCount = 142 ID = 418185003x
  67.143885 1  18EBFF2Bx       Rx   d 8 01 00 FF 21 F7 E5 01 A8  Length = 272000 BitCount = 140 ID = 418119467x
  67.176282 1  1000001x        Rx   d 8 42 00 1E 00 00 00 00 00  Length = 284000 BitCount = 146 ID = 16777217x
  67.289398 1  18EBFF2Bx       Rx   d 8 02 00 04 01 FF FF FF FF  Length = 278000 BitCount = 143 ID = 418119467x
  67.997941 1  18ECFF2Bx       Rx   d 8 20 0A 00 02 FF CA FE 00  Length = 276000 BitCount = 142 ID = 418185003x
  68.143577 1  18EBFF2Bx       Rx   d 8 01 00 FF 21 F7 E5 01 A8  Length = 272000 BitCount = 140 ID = 418119467x
  68.179045 1  1000001x        Rx   d 8 43 00 1E 00 00 00 00 00  Length = 286000 BitCount = 147 ID = 16777217x
  68.289302 1  18EBFF2Bx       Rx   d 8 02 00 04 01 FF FF FF FF  Length = 278000 BitCount = 143 ID = 418119467x
  68.997312 1  18ECFF2Bx       Rx   d 8 20 0A 00 02 FF CA FE 00  Length = 276000 BitCount = 142 ID = 418185003x
  69.142570 1  18EBFF2Bx       Rx   d 8 01 00 FF 21 F7 E5 01 A8  Length = 272000 BitCount = 140 ID = 418119467x
  69.193387 1  1000001x        Rx   d 8 44 00 1E 00 00 00 00 00  Length = 284000 BitCount = 146 ID = 16777217x
  69.288202 1  18EBFF2Bx       Rx   d 8 02 00 04 01 FF FF FF FF  Length = 278000 BitCount = 143 ID = 418119467x
  69.997789 1  18ECFF2Bx       Rx   d 8 20 0A 00 02 FF CA FE 00  Length = 276000 BitCount = 142 ID = 418185003x
  70.143135 1  18EBFF2Bx       Rx   d 8 01 00 FF 21 F7 E5 01 A8  Length = 272000 BitCount = 140 ID = 418119467x
  70.206910 1  1000001x        Rx   d 8 45 00 1E 00 00 00 00 00  Length = 286000 BitCount = 147 ID = 16777217x
  70.289119 1  18EBFF2Bx       Rx   d 8 02 00 04 01 FF FF FF FF  Length = 278000 BitCount = 143 ID = 418119467x
  70.527583 1  1868FFF9x       Rx   d 8 FF F0 FF FF FF FF FF FF  Length = 284000 BitCount = 146 ID = 409534457x
  70.998146 1  18ECFF2Bx       Rx   d 8 20 0A 00 02 FF CA FE 00  Length = 276000 BitCount = 142 ID = 418185003x
  71.143413 1  18EBFF2Bx       Rx   d 8 01 00 FF 21 F7 E5 01 A8  Length = 272000 BitCount = 140 ID = 418119467x
  71.210961 1  1000001x        Rx   d 8 46 00 1E 00 00 00 00 00  Length = 284000 BitCount = 146 ID = 16777217x
  71.289038 1  18EBFF2Bx       Rx   d 8 02 00 04 01 FF FF FF FF  Length = 278000 BitCount = 143 ID = 418119467x
  71.997455 1  18ECFF2Bx       Rx   d 8 20 0A 00 02 FF CA FE 00  Length = 276000 BitCount = 142 ID = 418185003x
  72.142627 1  18EBFF2Bx       Rx   d 8 01 00 FF 21 F7 E5 01 A8  Length = 272000 BitCount = 140 ID = 418119467x
  72.218347 1  1000001x        Rx   d 8 47 00 1E 00 00 00 00 00  Length = 284000 BitCount = 146 ID = 16777217x
  72.288119 1  18EBFF2Bx       Rx   d 8 02 00 04 01 FF FF FF FF  Length = 278000 BitCount = 143 ID = 418119467x
  72.996913 1  18ECFF2Bx       Rx   d 8 20 0A 00 02 FF CA FE 00  Length = 276000 BitCount = 142 ID = 418185003x
  73.142240 1  18EBFF2Bx       Rx   d 8 01 00 FF 21 F7 E5 01 A8  Length = 272000 BitCount = 140 ID = 418119467x
  73.224922 1  1000001x        Rx   d 8 48 00 1E 00 00 00 00 00  Length = 286000 BitCount = 147 ID = 16777217x
  73.287765 1  18EBFF2Bx       Rx   d 8 02 00 04 01 FF FF FF FF  Length = 278000 BitCount = 143 ID = 418119467x
  73.997326 1  18ECFF2Bx       Rx   d 8 20 0A 00 02 FF CA FE 00  Length = 276000 BitCount = 142 ID = 418185003x
  74.142369 1  18EBFF2Bx       Rx   d 8 01 00 FF 21 F7 E5 01 A8  Length = 272000 BitCount = 140 ID = 418119467x
  74.230780 1  1000001x        Rx   d 8 49 00 1E 00 00 00 00 00  Length = 286000 BitCount = 147 ID = 16777217x
  74.287970 1  18EBFF2Bx       Rx   d 8 02 00 04 01 FF FF FF FF  Length = 278000 BitCount = 143 ID = 418119467x
  74.997733 1  18ECFF2Bx       Rx   d 8 20 0A 00 02 FF CA FE 00  Length = 276000 BitCount = 142 ID = 418185003x
  75.143136 1  18EBFF2Bx       Rx   d 8 01 00 FF 21 F7 E5 01 A8  Length = 272000 BitCount = 140 ID = 418119467x
  75.232285 1  1000001x        Rx   d 8 4A 00 1E 00 00 00 00 00  Length = 284000 BitCount = 146 ID = 16777217x
  75.288701 1  18EBFF2Bx       Rx   d 8 02 00 04 01 FF FF FF FF  Length = 278000 BitCount = 143 ID = 418119467x
  75.997258 1  18ECFF2Bx       Rx   d 8 20 0A 00 02 FF CA FE 00  Length = 276000 BitCount = 142 ID = 418185003x
  76.144791 1  18EBFF2Bx       Rx   d 8 01 00 FF 21 F7 E5 01 A8  Length = 272000 BitCount = 140 ID = 418119467x
  76.242506 1  1000001x        Rx   d 8 4B 00 1E 00 00 00 00 00  Length = 288000 BitCount = 148 ID = 16777217x
  76.292008 1  18EBFF2Bx       Rx   d 8 02 00 04 01 FF FF FF FF  Length = 278000 BitCount = 143 ID = 418119467x
  76.997643 1  18ECFF2Bx       Rx   d 8 20 0A 00 02 FF CA FE 00  Length = 276000 BitCount = 142 ID = 418185003x
  77.144088 1  18EBFF2Bx       Rx   d 8 01 00 FF 21 F7 E5 01 A8  Length = 272000 BitCount = 140 ID = 418119467x
  77.247465 1  1000001x        Rx   d 8 4C 00 1E 00 00 00 00 00  Length = 284000 BitCount = 146 ID = 16777217x
  77.290923 1  18EBFF2Bx       Rx   d 8 02 00 04 01 FF FF FF FF  Length = 278000 BitCount = 143 ID = 418119467x
  77.556488 1  714             Rx   d 8 03 19 02 AC 81 81 81 81  Length = 228000 BitCount = 118 ID = 1812
  77.997051 1  18ECFF2Bx       Rx   d 8 20 0A 00 02 FF CA FE 00  Length = 276000 BitCount = 142 ID = 418185003x
  78.143507 1  18EBFF2Bx       Rx   d 8 01 00 FF 21 F7 E5 01 A8  Length = 272000 BitCount = 140 ID = 418119467x
  78.253733 1  1000001x        Rx   d 8 4D 00 1E 00 00 00 00 00  Length = 284000 BitCount = 146 ID = 16777217x
  78.290710 1  18EBFF2Bx       Rx   d 8 02 00 04 01 FF FF FF FF  Length = 278000 BitCount = 143 ID = 418119467x
  78.997901 1  18ECFF2Bx       Rx   d 8 20 0A 00 02 FF CA FE 00  Length = 276000 BitCount = 142 ID = 418185003x
  79.147652 1  18EBFF2Bx       Rx   d 8 01 00 FF 21 F7 E5 01 A8  Length = 272000 BitCount = 140 ID = 418119467x
  79.260247 1  1000001x        Rx   d 8 4E 00 1E 00 00 00 00 00  Length = 286000 BitCount = 147 ID = 16777217x
  79.298665 1  18EBFF2Bx       Rx   d 8 02 00 04 01 FF FF FF FF  Length = 278000 BitCount = 143 ID = 418119467x
  79.998549 1  18ECFF2Bx       Rx   d 8 20 0A 00 02 FF CA FE 00  Length = 276000 BitCount = 142 ID = 418185003x
  80.150413 1  18EBFF2Bx       Rx   d 8 01 00 FF 21 F7 E5 01 A8  Length = 272000 BitCount = 140 ID = 418119467x
  80.272700 1  1000001x        Rx   d 8 4F 00 1E 00 00 00 00 00  Length = 284000 BitCount = 146 ID = 16777217x
  80.302739 1  18EBFF2Bx       Rx   d 8 02 00 04 01 FF FF FF FF  Length = 278000 BitCount = 143 ID = 418119467x
  80.528303 1  1868FFF9x       Rx   d 8 FF F0 FF FF FF FF FF FF  Length = 284000 BitCount = 146 ID = 409534457x
  80.998086 1  18ECFF2Bx       Rx   d 8 20 0A 00 02 FF CA FE 00  Length = 276000 BitCount = 142 ID = 418185003x
  81.151305 1  18EBFF2Bx       Rx   d 8 01 00 FF 21 F7 E5 01 A8  Length = 272000 BitCount = 140 ID = 418119467x
  81.286313 1  1000001x        Rx   d 8 50 00 1E 00 00 00 00 00  Length = 288000 BitCount = 148 ID = 16777217x
  81.306054 1  18EBFF2Bx       Rx   d 8 02 00 04 01 FF FF FF FF  Length = 278000 BitCount = 143 ID = 418119467x
  81.997802 1  18ECFF2Bx       Rx   d 8 20 0A 00 02 FF CA FE 00  Length = 276000 BitCount = 142 ID = 418185003x
  82.143059 1  18EBFF2Bx       Rx   d 8 01 00 FF 21 F7 E5 01 A8  Length = 272000 BitCount = 140 ID = 418119467x
  82.289491 1  18EBFF2Bx       Rx   d 8 02 00 04 01 FF FF FF FF  Length = 278000 BitCount = 143 ID = 418119467x
  82.291731 1  1000001x        Rx   d 8 51 00 1E 00 00 00 00 00  Length = 286000 BitCount = 147 ID = 16777217x
  82.997249 1  18ECFF2Bx       Rx   d 8 20 0A 00 02 FF CA FE 00  Length = 276000 BitCount = 142 ID = 418185003x
  83.142062 1  18EBFF2Bx       Rx   d 8 01 00 FF 21 F7 E5 01 A8  Length = 272000 BitCount = 140 ID = 418119467x
  83.287549 1  18EBFF2Bx       Rx   d 8 02 00 04 01 FF FF FF FF  Length = 278000 BitCount = 143 ID = 418119467x
  83.296666 1  1000001x        Rx   d 8 52 00 1E 00 00 00 00 00  Length = 284000 BitCount = 146 ID = 16777217x
  83.998360 1  18ECFF2Bx       Rx   d 8 20 0A 00 02 FF CA FE 00  Length = 276000 BitCount = 142 ID = 418185003x
  84.143393 1  18EBFF2Bx       Rx   d 8 01 00 FF 21 F7 E5 01 A8  Length = 272000 BitCount = 140 ID = 418119467x
  84.288914 1  18EBFF2Bx       Rx   d 8 02 00 04 01 FF FF FF FF  Length = 278000 BitCount = 143 ID = 418119467x
  84.310202 1  1000001x        Rx   d 8 53 00 1E 00 00 00 00 00  Length = 286000 BitCount = 147 ID = 16777217x
  84.997692 1  18ECFF2Bx       Rx   d 8 20 0A 00 02 FF CA FE 00  Length = 276000 BitCount = 142 ID = 418185003x
  85.142914 1  18EBFF2Bx       Rx   d 8 01 00 FF 21 F7 E5 01 A8  Length = 272000 BitCount = 140 ID = 418119467x
  85.288342 1  18EBFF2Bx       Rx   d 8 02 00 04 01 FF FF FF FF  Length = 278000 BitCount = 143 ID = 418119467x
  85.311009 1  1000001x        Rx   d 8 54 00 1E 00 00 00 00 00  Length = 286000 BitCount = 147 ID = 16777217x
  85.997641 1  18ECFF2Bx       Rx   d 8 20 0A 00 02 FF CA FE 00  Length = 276000 BitCount = 142 ID = 418185003x
  86.142905 1  18EBFF2Bx       Rx   d 8 01 00 FF 21 F7 E5 01 A8  Length = 272000 BitCount = 140 ID = 418119467x
  86.288344 1  18EBFF2Bx       Rx   d 8 02 00 04 01 FF FF FF FF  Length = 278000 BitCount = 143 ID = 418119467x
  86.317091 1  1000001x        Rx   d 8 55 00 1E 00 00 00 00 00  Length = 286000 BitCount = 147 ID = 16777217x
  86.997226 1  18ECFF2Bx       Rx   d 8 20 0A 00 02 FF CA FE 00  Length = 276000 BitCount = 142 ID = 418185003x
  87.142844 1  18EBFF2Bx       Rx   d 8 01 00 FF 21 F7 E5 01 A8  Length = 272000 BitCount = 140 ID = 418119467x
  87.288503 1  18EBFF2Bx       Rx   d 8 02 00 04 01 FF FF FF FF  Length = 278000 BitCount = 143 ID = 418119467x
  87.324720 1  1000001x        Rx   d 8 56 00 1E 00 00 00 00 00  Length = 284000 BitCount = 146 ID = 16777217x
  87.997681 1  18ECFF2Bx       Rx   d 8 20 0A 00 02 FF CA FE 00  Length = 276000 BitCount = 142 ID = 418185003x
  88.142683 1  18EBFF2Bx       Rx   d 8 01 00 FF 21 F7 E5 01 A8  Length = 272000 BitCount = 140 ID = 418119467x
  88.288590 1  18EBFF2Bx       Rx   d 8 02 00 04 01 FF FF FF FF  Length = 278000 BitCount = 143 ID = 418119467x
  88.334248 1  1000001x        Rx   d 8 57 00 1E 00 00 00 00 00  Length = 288000 BitCount = 148 ID = 16777217x
  88.997595 1  18ECFF2Bx       Rx   d 8 20 0A 00 02 FF CA FE 00  Length = 276000 BitCount = 142 ID = 418185003x
  89.142680 1  18EBFF2Bx       Rx   d 8 01 00 FF 21 F7 E5 01 A8  Length = 272000 BitCount = 140 ID = 418119467x
  89.288192 1  18EBFF2Bx       Rx   d 8 02 00 04 01 FF FF FF FF  Length = 278000 BitCount = 143 ID = 418119467x
  89.344378 1  1000001x        Rx   d 8 58 00 1E 00 00 00 00 00  Length = 284000 BitCount = 146 ID = 16777217x
  89.997233 1  18ECFF2Bx       Rx   d 8 20 0A 00 02 FF CA FE 00  Length = 276000 BitCount = 142 ID = 418185003x
  90.142323 1  18EBFF2Bx       Rx   d 8 01 00 FF 21 F7 E5 01 A8  Length = 272000 BitCount = 140 ID = 418119467x
  90.287809 1  18EBFF2Bx       Rx   d 8 02 00 04 01 FF FF FF FF  Length = 278000 BitCount = 143 ID = 418119467x
  90.346097 1  1000001x        Rx   d 8 59 00 1E 00 00 00 00 00  Length = 284000 BitCount = 146 ID = 16777217x
  90.528567 1  1868FFF9x       Rx   d 8 FF F0 FF FF FF FF FF FF  Length = 284000 BitCount = 146 ID = 409534457x
  90.996727 1  18ECFF2Bx       Rx   d 8 20 0A 00 02 FF CA FE 00  Length = 276000 BitCount = 142 ID = 418185003x
  91.142213 1  18EBFF2Bx       Rx   d 8 01 00 FF 21 F7 E5 01 A8  Length = 272000 BitCount = 140 ID = 418119467x
  91.287852 1  18EBFF2Bx       Rx   d 8 02 00 04 01 FF FF FF FF  Length = 278000 BitCount = 143 ID = 418119467x
  91.345645 1  1000001x        Rx   d 8 5A 00 1E 00 00 00 00 00  Length = 284000 BitCount = 146 ID = 16777217x
  91.997096 1  18ECFF2Bx       Rx   d 8 20 0A 00 02 FF CA FE 00  Length = 276000 BitCount = 142 ID = 418185003x
  92.142050 1  18EBFF2Bx       Rx   d 8 01 00 FF 21 F7 E5 01 A8  Length = 272000 BitCount = 140 ID = 418119467x
  92.287490 1  18EBFF2Bx       Rx   d 8 02 00 04 01 FF FF FF FF  Length = 278000 BitCount = 143 ID = 418119467x
  92.361167 1  1000001x        Rx   d 8 5B 00 1E 00 00 00 00 00  Length = 284000 BitCount = 146 ID = 16777217x
  92.996532 1  18ECFF2Bx       Rx   d 8 20 0A 00 02 FF CA FE 00  Length = 276000 BitCount = 142 ID = 418185003x
  93.141956 1  18EBFF2Bx       Rx   d 8 01 00 FF 21 F7 E5 01 A8  Length = 272000 BitCount = 140 ID = 418119467x
  93.287319 1  18EBFF2Bx       Rx   d 8 02 00 04 01 FF FF FF FF  Length = 278000 BitCount = 143 ID = 418119467x
  93.365913 1  1000001x        Rx   d 8 5C 00 1E 00 00 00 00 00  Length = 286000 BitCount = 147 ID = 16777217x
  93.996997 1  18ECFF2Bx       Rx   d 8 20 0A 00 02 FF CA FE 00  Length = 276000 BitCount = 142 ID = 418185003x
  94.141792 1  18EBFF2Bx       Rx   d 8 01 00 FF 21 F7 E5 01 A8  Length = 272000 BitCount = 140 ID = 418119467x
  94.287330 1  18EBFF2Bx       Rx   d 8 02 00 04 01 FF FF FF FF  Length = 278000 BitCount = 143 ID = 418119467x
  94.367795 1  1000001x        Rx   d 8 5D 00 1E 00 00 00 00 00  Length = 284000 BitCount = 146 ID = 16777217x
  94.996384 1  18ECFF2Bx       Rx   d 8 20 0A 00 02 FF CA FE 00  Length = 276000 BitCount = 142 ID = 418185003x
  95.141061 1  18EBFF2Bx       Rx   d 8 01 00 FF 21 F7 E5 01 A8  Length = 272000 BitCount = 140 ID = 418119467x
  95.286596 1  18EBFF2Bx       Rx   d 8 02 00 04 01 FF FF FF FF  Length = 278000 BitCount = 143 ID = 418119467x
  95.373673 1  1000001x        Rx   d 8 5E 00 1E 00 00 00 00 00  Length = 286000 BitCount = 147 ID = 16777217x
  95.996861 1  18ECFF2Bx       Rx   d 8 20 0A 00 02 FF CA FE 00  Length = 276000 BitCount = 142 ID = 418185003x
  96.141782 1  18EBFF2Bx       Rx   d 8 01 00 FF 21 F7 E5 01 A8  Length = 272000 BitCount = 140 ID = 418119467x
  96.287241 1  18EBFF2Bx       Rx   d 8 02 00 04 01 FF FF FF FF  Length = 278000 BitCount = 143 ID = 418119467x
  96.379652 1  1000001x        Rx   d 8 5F 00 1E 00 00 00 00 00  Length = 286000 BitCount = 147 ID = 16777217x
  96.997399 1  18ECFF2Bx       Rx   d 8 20 0A 00 02 FF CA FE 00  Length = 276000 BitCount = 142 ID = 418185003x
  97.142990 1  18EBFF2Bx       Rx   d 8 01 00 FF 21 F7 E5 01 A8  Length = 272000 BitCount = 140 ID = 418119467x
  97.288317 1  18EBFF2Bx       Rx   d 8 02 00 04 01 FF FF FF FF  Length = 278000 BitCount = 143 ID = 418119467x
  97.383680 1  1000001x        Rx   d 8 60 00 1E 00 00 00 00 00  Length = 286000 BitCount = 147 ID = 16777217x
  97.996969 1  18ECFF2Bx       Rx   d 8 20 0A 00 02 FF CA FE 00  Length = 276000 BitCount = 142 ID = 418185003x
  98.141803 1  18EBFF2Bx       Rx   d 8 01 00 FF 21 F7 E5 01 A8  Length = 272000 BitCount = 140 ID = 418119467x
  98.287382 1  18EBFF2Bx       Rx   d 8 02 00 04 01 FF FF FF FF  Length = 278000 BitCount = 143 ID = 418119467x
  98.390125 1  1000001x        Rx   d 8 61 00 1E 00 00 00 00 00  Length = 284000 BitCount = 146 ID = 16777217x
  98.996368 1  18ECFF2Bx       Rx   d 8 20 0A 00 02 FF CA FE 00  Length = 276000 BitCount = 142 ID = 418185003x
  99.141709 1  18EBFF2Bx       Rx   d 8 01 00 FF 21 F7 E5 01 A8  Length = 272000 BitCount = 140 ID = 418119467x
  99.287193 1  18EBFF2Bx       Rx   d 8 02 00 04 01 FF FF FF FF  Length = 278000 BitCount = 143 ID = 418119467x
  99.396344 1  1000001x        Rx   d 8 62 00 1E 00 00 00 00 00  Length = 284000 BitCount = 146 ID = 16777217x
  99.996826 1  18ECFF2Bx       Rx   d 8 20 0A 00 02 FF CA FE 00  Length = 276000 BitCount = 142 ID = 418185003x
 100.142534 1  18EBFF2Bx       Rx   d 8 01 00 FF 21 F7 E5 01 A8  Length = 272000 BitCount = 140 ID = 418119467x
 100.287815 1  18EBFF2Bx       Rx   d 8 02 00 04 01 FF FF FF FF  Length = 278000 BitCount = 143 ID = 418119467x
 100.401608 1  1000001x        Rx   d 8 63 00 1E 00 00 00 00 00  Length = 284000 BitCount = 146 ID = 16777217x
 100.528395 1  1868FFF9x       Rx   d 8 FF F0 FF FF FF FF FF FF  Length = 284000 BitCount = 146 ID = 409534457x
 100.996136 1  18ECFF2Bx       Rx   d 8 20 0A 00 02 FF CA FE 00  Length = 276000 BitCount = 142 ID = 418185003x
 101.141529 1  18EBFF2Bx       Rx   d 8 01 00 FF 21 F7 E5 01 A8  Length = 272000 BitCount = 140 ID = 418119467x
 101.287085 1  18EBFF2Bx       Rx   d 8 02 00 04 01 FF FF FF FF  Length = 278000 BitCount = 143 ID = 418119467x
 101.404652 1  1000001x        Rx   d 8 64 00 1E 00 00 00 00 00  Length = 286000 BitCount = 147 ID = 16777217x
 101.996482 1  18ECFF2Bx       Rx   d 8 20 0A 00 02 FF CA FE 00  Length = 276000 BitCount = 142 ID = 418185003x
 102.141360 1  18EBFF2Bx       Rx   d 8 01 00 FF 21 F7 E5 01 A8  Length = 272000 BitCount = 140 ID = 418119467x
 102.286653 1  18EBFF2Bx       Rx   d 8 02 00 04 01 FF FF FF FF  Length = 278000 BitCount = 143 ID = 418119467x
 102.409766 1  1000001x        Rx   d 8 65 00 1E 00 00 00 00 00  Length = 286000 BitCount = 147 ID = 16777217x
 102.996868 1  18ECFF2Bx       Rx   d 8 20 0A 00 02 FF CA FE 00  Length = 276000 BitCount = 142 ID = 418185003x
 103.142145 1  18EBFF2Bx       Rx   d 8 01 00 FF 21 F7 E5 01 A8  Length = 272000 BitCount = 140 ID = 418119467x
 103.287640 1  18EBFF2Bx       Rx   d 8 02 00 04 01 FF FF FF FF  Length = 278000 BitCount = 143 ID = 418119467x
 103.418124 1  1000001x        Rx   d 8 66 00 1E 00 00 00 00 00  Length = 284000 BitCount = 146 ID = 16777217x
 103.996329 1  18ECFF2Bx       Rx   d 8 20 0A 00 02 FF CA FE 00  Length = 276000 BitCount = 142 ID = 418185003x
 104.141885 1  18EBFF2Bx       Rx   d 8 01 00 FF 21 F7 E5 01 A8  Length = 272000 BitCount = 140 ID = 418119467x
 104.287177 1  18EBFF2Bx       Rx   d 8 02 00 04 01 FF FF FF FF  Length = 278000 BitCount = 143 ID = 418119467x
 104.426217 1  1000001x        Rx   d 8 67 00 1E 00 00 00 00 00  Length = 284000 BitCount = 146 ID = 16777217x
 104.996714 1  18ECFF2Bx       Rx   d 8 20 0A 00 02 FF CA FE 00  Length = 276000 BitCount = 142 ID = 418185003x
 105.142054 1  18EBFF2Bx       Rx   d 8 01 00 FF 21 F7 E5 01 A8  Length = 272000 BitCount = 140 ID = 418119467x
 105.287524 1  18EBFF2Bx       Rx   d 8 02 00 04 01 FF FF FF FF  Length = 278000 BitCount = 143 ID = 418119467x
 105.434120 1  1000001x        Rx   d 8 68 00 1E 00 00 00 00 00  Length = 284000 BitCount = 146 ID = 16777217x
 105.996188 1  18ECFF2Bx       Rx   d 8 20 0A 00 02 FF CA FE 00  Length = 276000 BitCount = 142 ID = 418185003x
 106.141131 1  18EBFF2Bx       Rx   d 8 01 00 FF 21 F7 E5 01 A8  Length = 272000 BitCount = 140 ID = 418119467x
 106.286691 1  18EBFF2Bx       Rx   d 8 02 00 04 01 FF FF FF FF  Length = 278000 BitCount = 143 ID = 418119467x
 106.442305 1  1000001x        Rx   d 8 69 00 1E 00 00 00 00 00  Length = 286000 BitCount = 147 ID = 16777217x
 106.996533 1  18ECFF2Bx       Rx   d 8 20 0A 00 02 FF CA FE 00  Length = 276000 BitCount = 142 ID = 418185003x
 107.141655 1  18EBFF2Bx       Rx   d 8 01 00 FF 21 F7 E5 01 A8  Length = 272000 BitCount = 140 ID = 418119467x
 107.286936 1  18EBFF2Bx       Rx   d 8 02 00 04 01 FF FF FF FF  Length = 278000 BitCount = 143 ID = 418119467x
 107.443556 1  1000001x        Rx   d 8 6A 00 1E 00 00 00 00 00  Length = 286000 BitCount = 147 ID = 16777217x
 107.996719 1  18ECFF2Bx       Rx   d 8 20 0A 00 02 FF CA FE 00  Length = 276000 BitCount = 142 ID = 418185003x
 108.141492 1  18EBFF2Bx       Rx   d 8 01 00 FF 21 F7 E5 01 A8  Length = 272000 BitCount = 140 ID = 418119467x
 108.287112 1  18EBFF2Bx       Rx   d 8 02 00 04 01 FF FF FF FF  Length = 278000 BitCount = 143 ID = 418119467x
 108.453375 1  1000001x        Rx   d 8 6B 00 1E 00 00 00 00 00  Length = 284000 BitCount = 146 ID = 16777217x
 108.996448 1  18ECFF2Bx       Rx   d 8 20 0A 00 02 FF CA FE 00  Length = 276000 BitCount = 142 ID = 418185003x
 109.141571 1  18EBFF2Bx       Rx   d 8 01 00 FF 21 F7 E5 01 A8  Length = 272000 BitCount = 140 ID = 418119467x
 109.287056 1  18EBFF2Bx       Rx   d 8 02 00 04 01 FF FF FF FF  Length = 278000 BitCount = 143 ID = 418119467x
 109.461781 1  1000001x        Rx   d 8 6C 00 1E 00 00 00 00 00  Length = 284000 BitCount = 146 ID = 16777217x
 109.997247 1  18ECFF2Bx       Rx   d 8 20 0A 00 02 FF CA FE 00  Length = 276000 BitCount = 142 ID = 418185003x
 110.142396 1  18EBFF2Bx       Rx   d 8 01 00 FF 21 F7 E5 01 A8  Length = 272000 BitCount = 140 ID = 418119467x
 110.287984 1  18EBFF2Bx       Rx   d 8 02 00 04 01 FF FF FF FF  Length = 278000 BitCount = 143 ID = 418119467x
 110.467145 1  1000001x        Rx   d 8 6D 00 1E 00 00 00 00 00  Length = 284000 BitCount = 146 ID = 16777217x
 110.528432 1  1868FFF9x       Rx   d 8 FF F0 FF FF FF FF FF FF  Length = 284000 BitCount = 146 ID = 409534457x
 110.997041 1  18ECFF2Bx       Rx   d 8 20 0A 00 02 FF CA FE 00  Length = 276000 BitCount = 142 ID = 418185003x
 111.142319 1  18EBFF2Bx       Rx   d 8 01 00 FF 21 F7 E5 01 A8  Length = 272000 BitCount = 140 ID = 418119467x
 111.287961 1  18EBFF2Bx       Rx   d 8 02 00 04 01 FF FF FF FF  Length = 278000 BitCount = 143 ID = 418119467x
 111.476815 1  1000001x        Rx   d 8 6E 00 1E 00 00 00 00 00  Length = 284000 BitCount = 146 ID = 16777217x
 111.996522 1  18ECFF2Bx       Rx   d 8 20 0A 00 02 FF CA FE 00  Length = 276000 BitCount = 142 ID = 418185003x
 112.141429 1  18EBFF2Bx       Rx   d 8 01 00 FF 21 F7 E5 01 A8  Length = 272000 BitCount = 140 ID = 418119467x
 112.287087 1  18EBFF2Bx       Rx   d 8 02 00 04 01 FF FF FF FF  Length = 278000 BitCount = 143 ID = 418119467x
 112.488270 1  1000001x        Rx   d 8 6F 00 1E 00 00 00 00 00  Length = 284000 BitCount = 146 ID = 16777217x
 112.995990 1  18ECFF2Bx       Rx   d 8 20 0A 00 02 FF CA FE 00  Length = 276000 BitCount = 142 ID = 418185003x
 113.141283 1  18EBFF2Bx       Rx   d 8 01 00 FF 21 F7 E5 01 A8  Length = 272000 BitCount = 140 ID = 418119467x
 113.286768 1  18EBFF2Bx       Rx   d 8 02 00 04 01 FF FF FF FF  Length = 278000 BitCount = 143 ID = 418119467x
 113.490563 1  1000001x        Rx   d 8 70 00 1E 00 00 00 00 00  Length = 290000 BitCount = 149 ID = 16777217x
 113.996412 1  18ECFF2Bx       Rx   d 8 20 0A 00 02 FF CA FE 00  Length = 276000 BitCount = 142 ID = 418185003x
 114.141668 1  18EBFF2Bx       Rx   d 8 01 00 FF 21 F7 E5 01 A8  Length = 272000 BitCount = 140 ID = 418119467x
 114.287734 1  18EBFF2Bx       Rx   d 8 02 00 04 01 FF FF FF FF  Length = 278000 BitCount = 143 ID = 418119467x
 114.500330 1  1000001x        Rx   d 8 71 00 1E 00 00 00 00 00  Length = 284000 BitCount = 146 ID = 16777217x
 114.995878 1  18ECFF2Bx       Rx   d 8 20 0A 00 02 FF CA FE 00  Length = 276000 BitCount = 142 ID = 418185003x
 115.141190 1  18EBFF2Bx       Rx   d 8 01 00 FF 21 F7 E5 01 A8  Length = 272000 BitCount = 140 ID = 418119467x
 115.286656 1  18EBFF2Bx       Rx   d 8 02 00 04 01 FF FF FF FF  Length = 278000 BitCount = 143 ID = 418119467x
 115.505390 1  1000001x        Rx   d 8 72 00 1E 00 00 00 00 00  Length = 286000 BitCount = 147 ID = 16777217x
 115.996273 1  18ECFF2Bx       Rx   d 8 20 0A 00 02 FF CA FE 00  Length = 276000 BitCount = 142 ID = 418185003x
 116.142169 1  18EBFF2Bx       Rx   d 8 01 00 FF 21 F7 E5 01 A8  Length = 272000 BitCount = 140 ID = 418119467x
 116.287568 1  18EBFF2Bx       Rx   d 8 02 00 04 01 FF FF FF FF  Length = 278000 BitCount = 143 ID = 418119467x
 116.510626 1  1000001x        Rx   d 8 73 00 1E 00 00 00 00 00  Length = 286000 BitCount = 147 ID = 16777217x
 116.996107 1  18ECFF2Bx       Rx   d 8 20 0A 00 02 FF CA FE 00  Length = 276000 BitCount = 142 ID = 418185003x
 117.141702 1  18EBFF2Bx       Rx   d 8 01 00 FF 21 F7 E5 01 A8  Length = 272000 BitCount = 140 ID = 418119467x
 117.287141 1  18EBFF2Bx       Rx   d 8 02 00 04 01 FF FF FF FF  Length = 278000 BitCount = 143 ID = 418119467x
 117.521322 1  1000001x        Rx   d 8 74 00 1E 00 00 00 00 00  Length = 284000 BitCount = 146 ID = 16777217x
 117.995569 1  18ECFF2Bx       Rx   d 8 20 0A 00 02 FF CA FE 00  Length = 276000 BitCount = 142 ID = 418185003x
 118.140680 1  18EBFF2Bx       Rx   d 8 01 00 FF 21 F7 E5 01 A8  Length = 272000 BitCount = 140 ID = 418119467x
 118.286649 1  18EBFF2Bx       Rx   d 8 02 00 04 01 FF FF FF FF  Length = 278000 BitCount = 143 ID = 418119467x
 118.534268 1  1000001x        Rx   d 8 75 00 1E 00 00 00 00 00  Length = 286000 BitCount = 147 ID = 16777217x
 118.995925 1  18ECFF2Bx       Rx   d 8 20 0A 00 02 FF CA FE 00  Length = 276000 BitCount = 142 ID = 418185003x
 119.141096 1  18EBFF2Bx       Rx   d 8 01 00 FF 21 F7 E5 01 A8  Length = 272000 BitCount = 140 ID = 418119467x
 119.286775 1  18EBFF2Bx       Rx   d 8 02 00 04 01 FF FF FF FF  Length = 278000 BitCount = 143 ID = 418119467x
 119.542857 1  1000001x        Rx   d 8 76 00 1E 00 00 00 00 00  Length = 286000 BitCount = 147 ID = 16777217x
 119.996346 1  18ECFF2Bx       Rx   d 8 20 0A 00 02 FF CA FE 00  Length = 276000 BitCount = 142 ID = 418185003x
 120.141551 1  18EBFF2Bx       Rx   d 8 01 00 FF 21 F7 E5 01 A8  Length = 272000 BitCount = 140 ID = 418119467x
 120.287108 1  18EBFF2Bx       Rx   d 8 02 00 04 01 FF FF FF FF  Length = 278000 BitCount = 143 ID = 418119467x
 120.528682 1  1868FFF9x       Rx   d 8 FF F0 FF FF FF FF FF FF  Length = 284000 BitCount = 146 ID = 409534457x
 120.553623 1  1000001x        Rx   d 8 77 00 1E 00 00 00 00 00  Length = 284000 BitCount = 146 ID = 16777217x
 120.995772 1  18ECFF2Bx       Rx   d 8 20 0A 00 02 FF CA FE 00  Length = 276000 BitCount = 142 ID = 418185003x
 121.140582 1  18EBFF2Bx       Rx   d 8 01 00 FF 21 F7 E5 01 A8  Length = 272000 BitCount = 140 ID = 418119467x
 121.286178 1  18EBFF2Bx       Rx   d 8 02 00 04 01 FF FF FF FF  Length = 278000 BitCount = 143 ID = 418119467x
 121.558193 1  1000001x        Rx   d 8 78 00 1E 00 00 00 00 00  Length = 288000 BitCount = 148 ID = 16777217x
 121.996194 1  18ECFF2Bx       Rx   d 8 20 0A 00 02 FF CA FE 00  Length = 276000 BitCount = 142 ID = 418185003x
 122.141290 1  18EBFF2Bx       Rx   d 8 01 00 FF 21 F7 E5 01 A8  Length = 272000 BitCount = 140 ID = 418119467x
 122.287068 1  18EBFF2Bx       Rx   d 8 02 00 04 01 FF FF FF FF  Length = 278000 BitCount = 143 ID = 418119467x
 122.563712 1  1000001x        Rx   d 8 79 00 1E 00 00 00 00 00  Length = 284000 BitCount = 146 ID = 16777217x
 122.995613 1  18ECFF2Bx       Rx   d 8 20 0A 00 02 FF CA FE 00  Length = 276000 BitCount = 142 ID = 418185003x
 123.141032 1  18EBFF2Bx       Rx   d 8 01 00 FF 21 F7 E5 01 A8  Length = 272000 BitCount = 140 ID = 418119467x
 123.286667 1  18EBFF2Bx       Rx   d 8 02 00 04 01 FF FF FF FF  Length = 278000 BitCount = 143 ID = 418119467x
 123.568109 1  1000001x        Rx   d 8 7A 00 1E 00 00 00 00 00  Length = 284000 BitCount = 146 ID = 16777217x
 123.996071 1  18ECFF2Bx       Rx   d 8 20 0A 00 02 FF CA FE 00  Length = 276000 BitCount = 142 ID = 418185003x
 124.141324 1  18EBFF2Bx       Rx   d 8 01 00 FF 21 F7 E5 01 A8  Length = 272000 BitCount = 140 ID = 418119467x
 124.287050 1  18EBFF2Bx       Rx   d 8 02 00 04 01 FF FF FF FF  Length = 278000 BitCount = 143 ID = 418119467x
 124.572526 1  1000001x        Rx   d 8 7B 00 1E 00 00 00 00 00  Length = 284000 BitCount = 146 ID = 16777217x
 124.996291 1  18ECFF2Bx       Rx   d 8 20 0A 00 02 FF CA FE 00  Length = 276000 BitCount = 142 ID = 418185003x
 125.141207 1  18EBFF2Bx       Rx   d 8 01 00 FF 21 F7 E5 01 A8  Length = 272000 BitCount = 140 ID = 418119467x
 125.286888 1  18EBFF2Bx       Rx   d 8 02 00 04 01 FF FF FF FF  Length = 278000 BitCount = 143 ID = 418119467x
 125.577781 1  1000001x        Rx   d 8 7C 00 1E 00 00 00 00 00  Length = 286000 BitCount = 147 ID = 16777217x
 125.996748 1  18ECFF2Bx       Rx   d 8 20 0A 00 02 FF CA FE 00  Length = 276000 BitCount = 142 ID = 418185003x
 126.142418 1  18EBFF2Bx       Rx   d 8 01 00 FF 21 F7 E5 01 A8  Length = 272000 BitCount = 140 ID = 418119467x
 126.288156 1  18EBFF2Bx       Rx   d 8 02 00 04 01 FF FF FF FF  Length = 278000 BitCount = 143 ID = 418119467x
 126.581293 1  1000001x        Rx   d 8 7D 00 1E 00 00 00 00 00  Length = 288000 BitCount = 148 ID = 16777217x
 126.996744 1  18ECFF2Bx       Rx   d 8 20 0A 00 02 FF CA FE 00  Length = 276000 BitCount = 142 ID = 418185003x
 127.141941 1  18EBFF2Bx       Rx   d 8 01 00 FF 21 F7 E5 01 A8  Length = 272000 BitCount = 140 ID = 418119467x
 127.287500 1  18EBFF2Bx       Rx   d 8 02 00 04 01 FF FF FF FF  Length = 278000 BitCount = 143 ID = 418119467x
 127.588140 1  1000001x        Rx   d 8 7E 00 1E 00 00 00 00 00  Length = 286000 BitCount = 147 ID = 16777217x
 127.995600 1  18ECFF2Bx       Rx   d 8 20 0A 00 02 FF CA FE 00  Length = 276000 BitCount = 142 ID = 418185003x
 128.140316 1  18EBFF2Bx       Rx   d 8 01 00 FF 21 F7 E5 01 A8  Length = 272000 BitCount = 140 ID = 418119467x
 128.285898 1  18EBFF2Bx       Rx   d 8 02 00 04 01 FF FF FF FF  Length = 278000 BitCount = 143 ID = 418119467x
 128.601748 1  1000001x        Rx   d 8 7F 00 1E 00 00 00 00 00  Length = 288000 BitCount = 148 ID = 16777217x
 128.995947 1  18ECFF2Bx       Rx   d 8 20 0A 00 02 FF CA FE 00  Length = 276000 BitCount = 142 ID = 418185003x
 129.141163 1  18EBFF2Bx       Rx   d 8 01 00 FF 21 F7 E5 01 A8  Length = 272000 BitCount = 140 ID = 418119467x
 129.287021 1  18EBFF2Bx       Rx   d 8 02 00 04 01 FF FF FF FF  Length = 278000 BitCount = 143 ID = 418119467x
 129.607080 1  1000001x        Rx   d 8 80 00 1E 00 00 00 00 00  Length = 286000 BitCount = 147 ID = 16777217x
 129.995469 1  18ECFF2Bx       Rx   d 8 20 0A 00 02 FF CA FE 00  Length = 276000 BitCount = 142 ID = 418185003x
 130.140507 1  18EBFF2Bx       Rx   d 8 01 00 FF 21 F7 E5 01 A8  Length = 272000 BitCount = 140 ID = 418119467x
 130.286153 1  18EBFF2Bx       Rx   d 8 02 00 04 01 FF FF FF FF  Length = 278000 BitCount = 143 ID = 418119467x
 130.529000 1  1868FFF9x       Rx   d 8 FF F0 FF FF FF FF FF FF  Length = 284000 BitCount = 146 ID = 409534457x
 130.620298 1  1000001x        Rx   d 8 81 00 1E 00 00 00 00 00  Length = 288000 BitCount = 148 ID = 16777217x
 130.995699 1  18ECFF2Bx       Rx   d 8 20 0A 00 02 FF CA FE 00  Length = 276000 BitCount = 142 ID = 418185003x
 131.140886 1  18EBFF2Bx       Rx   d 8 01 00 FF 21 F7 E5 01 A8  Length = 272000 BitCount = 140 ID = 418119467x
 131.286457 1  18EBFF2Bx       Rx   d 8 02 00 04 01 FF FF FF FF  Length = 278000 BitCount = 143 ID = 418119467x
 131.629129 1  1000001x        Rx   d 8 82 00 1E 00 00 00 00 00  Length = 286000 BitCount = 147 ID = 16777217x
 131.995096 1  18ECFF2Bx       Rx   d 8 20 0A 00 02 FF CA FE 00  Length = 276000 BitCount = 142 ID = 418185003x
 132.140058 1  18EBFF2Bx       Rx   d 8 01 00 FF 21 F7 E5 01 A8  Length = 272000 BitCount = 140 ID = 418119467x
 132.285655 1  18EBFF2Bx       Rx   d 8 02 00 04 01 FF FF FF FF  Length = 278000 BitCount = 143 ID = 418119467x
 132.636736 1  1000001x        Rx   d 8 83 00 1E 00 00 00 00 00  Length = 286000 BitCount = 147 ID = 16777217x
 132.995476 1  18ECFF2Bx       Rx   d 8 20 0A 00 02 FF CA FE 00  Length = 276000 BitCount = 142 ID = 418185003x
 133.140333 1  18EBFF2Bx       Rx   d 8 01 00 FF 21 F7 E5 01 A8  Length = 272000 BitCount = 140 ID = 418119467x
 133.286009 1  18EBFF2Bx       Rx   d 8 02 00 04 01 FF FF FF FF  Length = 278000 BitCount = 143 ID = 418119467x
 133.643907 1  1000001x        Rx   d 8 84 00 1E 00 00 00 00 00  Length = 284000 BitCount = 146 ID = 16777217x
 133.995826 1  18ECFF2Bx       Rx   d 8 20 0A 00 02 FF CA FE 00  Length = 276000 BitCount = 142 ID = 418185003x
 134.140919 1  18EBFF2Bx       Rx   d 8 01 00 FF 21 F7 E5 01 A8  Length = 272000 BitCount = 140 ID = 418119467x
 134.286584 1  18EBFF2Bx       Rx   d 8 02 00 04 01 FF FF FF FF  Length = 278000 BitCount = 143 ID = 418119467x
 134.652249 1  1000001x        Rx   d 8 85 00 1E 00 00 00 00 00  Length = 286000 BitCount = 147 ID = 16777217x
 134.995287 1  18ECFF2Bx       Rx   d 8 20 0A 00 02 FF CA FE 00  Length = 276000 BitCount = 142 ID = 418185003x
 135.141183 1  18EBFF2Bx       Rx   d 8 01 00 FF 21 F7 E5 01 A8  Length = 272000 BitCount = 140 ID = 418119467x
 135.286714 1  18EBFF2Bx       Rx   d 8 02 00 04 01 FF FF FF FF  Length = 278000 BitCount = 143 ID = 418119467x
 135.658728 1  1000001x        Rx   d 8 86 00 1E 00 00 00 00 00  Length = 286000 BitCount = 147 ID = 16777217x
 135.995874 1  18ECFF2Bx       Rx   d 8 20 0A 00 02 FF CA FE 00  Length = 276000 BitCount = 142 ID = 418185003x
 136.144015 1  18EBFF2Bx       Rx   d 8 01 00 FF 21 F7 E5 01 A8  Length = 272000 BitCount = 140 ID = 418119467x
 136.291758 1  18EBFF2Bx       Rx   d 8 02 00 04 01 FF FF FF FF  Length = 278000 BitCount = 143 ID = 418119467x
 136.662819 1  1000001x        Rx   d 8 87 00 1E 00 00 00 00 00  Length = 286000 BitCount = 147 ID = 16777217x
 136.995297 1  18ECFF2Bx       Rx   d 8 20 0A 00 02 FF CA FE 00  Length = 276000 BitCount = 142 ID = 418185003x
 137.141930 1  18EBFF2Bx       Rx   d 8 01 00 FF 21 F7 E5 01 A8  Length = 272000 BitCount = 140 ID = 418119467x
 137.289638 1  18EBFF2Bx       Rx   d 8 02 00 04 01 FF FF FF FF  Length = 278000 BitCount = 143 ID = 418119467x
 137.671672 1  1000001x        Rx   d 8 88 00 1E 00 00 00 00 00  Length = 284000 BitCount = 146 ID = 16777217x
 137.716399 1  714             Rx   d 8 03 19 02 AC 81 81 81 81  Length = 228000 BitCount = 118 ID = 1812
 137.995637 1  18ECFF2Bx       Rx   d 8 20 0A 00 02 FF CA FE 00  Length = 276000 BitCount = 142 ID = 418185003x
 138.140729 1  18EBFF2Bx       Rx   d 8 01 00 FF 21 F7 E5 01 A8  Length = 272000 BitCount = 140 ID = 418119467x
 138.287880 1  18EBFF2Bx       Rx   d 8 02 00 04 01 FF FF FF FF  Length = 278000 BitCount = 143 ID = 418119467x
 138.678430 1  1000001x        Rx   d 8 89 00 1E 00 00 00 00 00  Length = 284000 BitCount = 146 ID = 16777217x
 138.995382 1  18ECFF2Bx       Rx   d 8 20 0A 00 02 FF CA FE 00  Length = 276000 BitCount = 142 ID = 418185003x
 139.145071 1  18EBFF2Bx       Rx   d 8 01 00 FF 21 F7 E5 01 A8  Length = 272000 BitCount = 140 ID = 418119467x
 139.295877 1  18EBFF2Bx       Rx   d 8 02 00 04 01 FF FF FF FF  Length = 278000 BitCount = 143 ID = 418119467x
 139.680037 1  1000001x        Rx   d 8 8A 00 1E 00 00 00 00 00  Length = 286000 BitCount = 147 ID = 16777217x
 139.994892 1  18ECFF2Bx       Rx   d 8 20 0A 00 02 FF CA FE 00  Length = 276000 BitCount = 142 ID = 418185003x
 140.146735 1  18EBFF2Bx       Rx   d 8 01 00 FF 21 F7 E5 01 A8  Length = 272000 BitCount = 140 ID = 418119467x
 140.299190 1  18EBFF2Bx       Rx   d 8 02 00 04 01 FF FF FF FF  Length = 278000 BitCount = 143 ID = 418119467x
 140.529482 1  1868FFF9x       Rx   d 8 FF F0 FF FF FF FF FF FF  Length = 284000 BitCount = 146 ID = 409534457x
 140.691224 1  1000001x        Rx   d 8 8B 00 1E 00 00 00 00 00  Length = 286000 BitCount = 147 ID = 16777217x
 140.995663 1  18ECFF2Bx       Rx   d 8 20 0A 00 02 FF CA FE 00  Length = 276000 BitCount = 142 ID = 418185003x
 141.148303 1  18EBFF2Bx       Rx   d 8 01 00 FF 21 F7 E5 01 A8  Length = 272000 BitCount = 140 ID = 418119467x
 141.301331 1  18EBFF2Bx       Rx   d 8 02 00 04 01 FF FF FF FF  Length = 278000 BitCount = 143 ID = 418119467x
 141.697405 1  1000001x        Rx   d 8 8C 00 1E 00 00 00 00 00  Length = 286000 BitCount = 147 ID = 16777217x
 141.994971 1  18ECFF2Bx       Rx   d 8 20 0A 00 02 FF CA FE 00  Length = 276000 BitCount = 142 ID = 418185003x
 142.140639 1  18EBFF2Bx       Rx   d 8 01 00 FF 21 F7 E5 01 A8  Length = 272000 BitCount = 140 ID = 418119467x
 142.287530 1  18EBFF2Bx       Rx   d 8 02 00 04 01 FF FF FF FF  Length = 278000 BitCount = 143 ID = 418119467x
 142.701019 1  1000001x        Rx   d 8 8D 00 1E 00 00 00 00 00  Length = 286000 BitCount = 147 ID = 16777217x
 142.995650 1  18ECFF2Bx       Rx   d 8 20 0A 00 02 FF CA FE 00  Length = 276000 BitCount = 142 ID = 418185003x
 143.141099 1  18EBFF2Bx       Rx   d 8 01 00 FF 21 F7 E5 01 A8  Length = 272000 BitCount = 140 ID = 418119467x
 143.286677 1  18EBFF2Bx       Rx   d 8 02 00 04 01 FF FF FF FF  Length = 278000 BitCount = 143 ID = 418119467x
 143.709799 1  1000001x        Rx   d 8 8E 00 1E 00 00 00 00 00  Length = 286000 BitCount = 147 ID = 16777217x
 143.994929 1  18ECFF2Bx       Rx   d 8 20 0A 00 02 FF CA FE 00  Length = 276000 BitCount = 142 ID = 418185003x
 144.139737 1  18EBFF2Bx       Rx   d 8 01 00 FF 21 F7 E5 01 A8  Length = 272000 BitCount = 140 ID = 418119467x
 144.285232 1  18EBFF2Bx       Rx   d 8 02 00 04 01 FF FF FF FF  Length = 278000 BitCount = 143 ID = 418119467x
 144.715058 1  1000001x        Rx   d 8 8F 00 1E 00 00 00 00 00  Length = 284000 BitCount = 146 ID = 16777217x
 144.995334 1  18ECFF2Bx       Rx   d 8 20 0A 00 02 FF CA FE 00  Length = 276000 BitCount = 142 ID = 418185003x
 145.140545 1  18EBFF2Bx       Rx   d 8 01 00 FF 21 F7 E5 01 A8  Length = 272000 BitCount = 140 ID = 418119467x
 145.286133 1  18EBFF2Bx       Rx   d 8 02 00 04 01 FF FF FF FF  Length = 278000 BitCount = 143 ID = 418119467x
 145.720318 1  1000001x        Rx   d 8 90 00 1E 00 00 00 00 00  Length = 290000 BitCount = 149 ID = 16777217x
 145.994737 1  18ECFF2Bx       Rx   d 8 20 0A 00 02 FF CA FE 00  Length = 276000 BitCount = 142 ID = 418185003x
 146.140137 1  18EBFF2Bx       Rx   d 8 01 00 FF 21 F7 E5 01 A8  Length = 272000 BitCount = 140 ID = 418119467x
 146.285771 1  18EBFF2Bx       Rx   d 8 02 00 04 01 FF FF FF FF  Length = 278000 BitCount = 143 ID = 418119467x
 146.725059 1  1000001x        Rx   d 8 91 00 1E 00 00 00 00 00  Length = 286000 BitCount = 147 ID = 16777217x
 146.995140 1  18ECFF2Bx       Rx   d 8 20 0A 00 02 FF CA FE 00  Length = 276000 BitCount = 142 ID = 418185003x
 147.140523 1  18EBFF2Bx       Rx   d 8 01 00 FF 21 F7 E5 01 A8  Length = 272000 BitCount = 140 ID = 418119467x
 147.286296 1  18EBFF2Bx       Rx   d 8 02 00 04 01 FF FF FF FF  Length = 278000 BitCount = 143 ID = 418119467x
 147.738443 1  1000001x        Rx   d 8 92 00 1E 00 00 00 00 00  Length = 286000 BitCount = 147 ID = 16777217x
 147.994463 1  18ECFF2Bx       Rx   d 8 20 0A 00 02 FF CA FE 00  Length = 276000 BitCount = 142 ID = 418185003x
 148.139511 1  18EBFF2Bx       Rx   d 8 01 00 FF 21 F7 E5 01 A8  Length = 272000 BitCount = 140 ID = 418119467x
 148.285334 1  18EBFF2Bx       Rx   d 8 02 00 04 01 FF FF FF FF  Length = 278000 BitCount = 143 ID = 418119467x
 148.751423 1  1000001x        Rx   d 8 93 00 1E 00 00 00 00 00  Length = 284000 BitCount = 146 ID = 16777217x
 148.994899 1  18ECFF2Bx       Rx   d 8 20 0A 00 02 FF CA FE 00  Length = 276000 BitCount = 142 ID = 418185003x
 149.139696 1  18EBFF2Bx       Rx   d 8 01 00 FF 21 F7 E5 01 A8  Length = 272000 BitCount = 140 ID = 418119467x
 149.285265 1  18EBFF2Bx       Rx   d 8 02 00 04 01 FF FF FF FF  Length = 278000 BitCount = 143 ID = 418119467x
 149.752196 1  1000001x        Rx   d 8 94 00 1E 00 00 00 00 00  Length = 284000 BitCount = 146 ID = 16777217x
 149.995224 1  18ECFF2Bx       Rx   d 8 20 0A 00 02 FF CA FE 00  Length = 276000 BitCount = 142 ID = 418185003x
 150.140360 1  18EBFF2Bx       Rx   d 8 01 00 FF 21 F7 E5 01 A8  Length = 272000 BitCount = 140 ID = 418119467x
 150.285948 1  18EBFF2Bx       Rx   d 8 02 00 04 01 FF FF FF FF  Length = 278000 BitCount = 143 ID = 418119467x
 150.529272 1  1868FFF9x       Rx   d 8 FF F0 FF FF FF FF FF FF  Length = 284000 BitCount = 146 ID = 409534457x
 150.760312 1  1000001x        Rx   d 8 95 00 1E 00 00 00 00 00  Length = 284000 BitCount = 146 ID = 16777217x
 150.994700 1  18ECFF2Bx       Rx   d 8 20 0A 00 02 FF CA FE 00  Length = 276000 BitCount = 142 ID = 418185003x
 151.139632 1  18EBFF2Bx       Rx   d 8 01 00 FF 21 F7 E5 01 A8  Length = 272000 BitCount = 140 ID = 418119467x
 151.285383 1  18EBFF2Bx       Rx   d 8 02 00 04 01 FF FF FF FF  Length = 278000 BitCount = 143 ID = 418119467x
 151.763897 1  1000001x        Rx   d 8 96 00 1E 00 00 00 00 00  Length = 284000 BitCount = 146 ID = 16777217x
 151.995107 1  18ECFF2Bx       Rx   d 8 20 0A 00 02 FF CA FE 00  Length = 276000 BitCount = 142 ID = 418185003x
 152.139481 1  18EBFF2Bx       Rx   d 8 01 00 FF 21 F7 E5 01 A8  Length = 272000 BitCount = 140 ID = 418119467x
 152.284966 1  18EBFF2Bx       Rx   d 8 02 00 04 01 FF FF FF FF  Length = 278000 BitCount = 143 ID = 418119467x
 152.778263 1  1000001x        Rx   d 8 97 00 1E 00 00 00 00 00  Length = 286000 BitCount = 147 ID = 16777217x
 152.994545 1  18ECFF2Bx       Rx   d 8 20 0A 00 02 FF CA FE 00  Length = 276000 BitCount = 142 ID = 418185003x
 153.139580 1  18EBFF2Bx       Rx   d 8 01 00 FF 21 F7 E5 01 A8  Length = 272000 BitCount = 140 ID = 418119467x
 153.285245 1  18EBFF2Bx       Rx   d 8 02 00 04 01 FF FF FF FF  Length = 278000 BitCount = 143 ID = 418119467x
 153.781085 1  1000001x        Rx   d 8 98 00 1E 00 00 00 00 00  Length = 284000 BitCount = 146 ID = 16777217x
 153.995055 1  18ECFF2Bx       Rx   d 8 20 0A 00 02 FF CA FE 00  Length = 276000 BitCount = 142 ID = 418185003x
 154.140580 1  18EBFF2Bx       Rx   d 8 01 00 FF 21 F7 E5 01 A8  Length = 272000 BitCount = 140 ID = 418119467x
 154.286200 1  18EBFF2Bx       Rx   d 8 02 00 04 01 FF FF FF FF  Length = 278000 BitCount = 143 ID = 418119467x
 154.790275 1  1000001x        Rx   d 8 99 00 1E 00 00 00 00 00  Length = 284000 BitCount = 146 ID = 16777217x
 154.994586 1  18ECFF2Bx       Rx   d 8 20 0A 00 02 FF CA FE 00  Length = 276000 BitCount = 142 ID = 418185003x
 155.139445 1  18EBFF2Bx       Rx   d 8 01 00 FF 21 F7 E5 01 A8  Length = 272000 BitCount = 140 ID = 418119467x
 155.285286 1  18EBFF2Bx       Rx   d 8 02 00 04 01 FF FF FF FF  Length = 278000 BitCount = 143 ID = 418119467x
 155.790979 1  1000001x        Rx   d 8 9A 00 1E 00 00 00 00 00  Length = 286000 BitCount = 147 ID = 16777217x
 155.994946 1  18ECFF2Bx       Rx   d 8 20 0A 00 02 FF CA FE 00  Length = 276000 BitCount = 142 ID = 418185003x
 156.140218 1  18EBFF2Bx       Rx   d 8 01 00 FF 21 F7 E5 01 A8  Length = 272000 BitCount = 140 ID = 418119467x
 156.285485 1  18EBFF2Bx       Rx   d 8 02 00 04 01 FF FF FF FF  Length = 278000 BitCount = 143 ID = 418119467x
 156.795866 1  1000001x        Rx   d 8 9B 00 1E 00 00 00 00 00  Length = 284000 BitCount = 146 ID = 16777217x
 156.994377 1  18ECFF2Bx       Rx   d 8 20 0A 00 02 FF CA FE 00  Length = 276000 BitCount = 142 ID = 418185003x
 157.139421 1  18EBFF2Bx       Rx   d 8 01 00 FF 21 F7 E5 01 A8  Length = 272000 BitCount = 140 ID = 418119467x
 157.284965 1  18EBFF2Bx       Rx   d 8 02 00 04 01 FF FF FF FF  Length = 278000 BitCount = 143 ID = 418119467x
 157.813311 1  1000001x        Rx   d 8 9C 00 1E 00 00 00 00 00  Length = 286000 BitCount = 147 ID = 16777217x
 157.994680 1  18ECFF2Bx       Rx   d 8 20 0A 00 02 FF CA FE 00  Length = 276000 BitCount = 142 ID = 418185003x
 158.139663 1  18EBFF2Bx       Rx   d 8 01 00 FF 21 F7 E5 01 A8  Length = 272000 BitCount = 140 ID = 418119467x
 158.285442 1  18EBFF2Bx       Rx   d 8 02 00 04 01 FF FF FF FF  Length = 278000 BitCount = 143 ID = 418119467x
 158.816336 1  1000001x        Rx   d 8 9D 00 1E 00 00 00 00 00  Length = 284000 BitCount = 146 ID = 16777217x
 158.994503 1  18ECFF2Bx       Rx   d 8 20 0A 00 02 FF CA FE 00  Length = 276000 BitCount = 142 ID = 418185003x
 159.140133 1  18EBFF2Bx       Rx   d 8 01 00 FF 21 F7 E5 01 A8  Length = 272000 BitCount = 140 ID = 418119467x
 159.285882 1  18EBFF2Bx       Rx   d 8 02 00 04 01 FF FF FF FF  Length = 278000 BitCount = 143 ID = 418119467x
 159.826944 1  1000001x        Rx   d 8 9E 00 1E 00 00 00 00 00  Length = 284000 BitCount = 146 ID = 16777217x
 159.995216 1  18ECFF2Bx       Rx   d 8 20 0A 00 02 FF CA FE 00  Length = 276000 BitCount = 142 ID = 418185003x
 160.140128 1  18EBFF2Bx       Rx   d 8 01 00 FF 21 F7 E5 01 A8  Length = 272000 BitCount = 140 ID = 418119467x
 160.285857 1  18EBFF2Bx       Rx   d 8 02 00 04 01 FF FF FF FF  Length = 278000 BitCount = 143 ID = 418119467x
 160.529728 1  1868FFF9x       Rx   d 8 FF F0 FF FF FF FF FF FF  Length = 284000 BitCount = 146 ID = 409534457x
 160.833505 1  1000001x        Rx   d 8 9F 00 1E 00 00 00 00 00  Length = 286000 BitCount = 147 ID = 16777217x
 160.995225 1  18ECFF2Bx       Rx   d 8 20 0A 00 02 FF CA FE 00  Length = 276000 BitCount = 142 ID = 418185003x
 161.140578 1  18EBFF2Bx       Rx   d 8 01 00 FF 21 F7 E5 01 A8  Length = 272000 BitCount = 140 ID = 418119467x
 161.286230 1  18EBFF2Bx       Rx   d 8 02 00 04 01 FF FF FF FF  Length = 278000 BitCount = 143 ID = 418119467x
 161.837789 1  1000001x        Rx   d 8 A0 00 1E 00 00 00 00 00  Length = 288000 BitCount = 148 ID = 16777217x
 161.995057 1  18ECFF2Bx       Rx   d 8 20 0A 00 02 FF CA FE 00  Length = 276000 BitCount = 142 ID = 418185003x
 162.140267 1  18EBFF2Bx       Rx   d 8 01 00 FF 21 F7 E5 01 A8  Length = 272000 BitCount = 140 ID = 418119467x
 162.285716 1  18EBFF2Bx       Rx   d 8 02 00 04 01 FF FF FF FF  Length = 278000 BitCount = 143 ID = 418119467x
 162.847973 1  1000001x        Rx   d 8 A1 00 1E 00 00 00 00 00  Length = 284000 BitCount = 146 ID = 16777217x
 162.994593 1  18ECFF2Bx       Rx   d 8 20 0A 00 02 FF CA FE 00  Length = 276000 BitCount = 142 ID = 418185003x
 163.139512 1  18EBFF2Bx       Rx   d 8 01 00 FF 21 F7 E5 01 A8  Length = 272000 BitCount = 140 ID = 418119467x
 163.285063 1  18EBFF2Bx       Rx   d 8 02 00 04 01 FF FF FF FF  Length = 278000 BitCount = 143 ID = 418119467x
 163.853895 1  1000001x        Rx   d 8 A2 00 1E 00 00 00 00 00  Length = 284000 BitCount = 146 ID = 16777217x
 163.993989 1  18ECFF2Bx       Rx   d 8 20 0A 00 02 FF CA FE 00  Length = 276000 BitCount = 142 ID = 418185003x
 164.139711 1  18EBFF2Bx       Rx   d 8 01 00 FF 21 F7 E5 01 A8  Length = 272000 BitCount = 140 ID = 418119467x
 164.285164 1  18EBFF2Bx       Rx   d 8 02 00 04 01 FF FF FF FF  Length = 278000 BitCount = 143 ID = 418119467x
 164.862033 1  1000001x        Rx   d 8 A3 00 1E 00 00 00 00 00  Length = 284000 BitCount = 146 ID = 16777217x
 164.994354 1  18ECFF2Bx       Rx   d 8 20 0A 00 02 FF CA FE 00  Length = 276000 BitCount = 142 ID = 418185003x
 165.139650 1  18EBFF2Bx       Rx   d 8 01 00 FF 21 F7 E5 01 A8  Length = 272000 BitCount = 140 ID = 418119467x
 165.285292 1  18EBFF2Bx       Rx   d 8 02 00 04 01 FF FF FF FF  Length = 278000 BitCount = 143 ID = 418119467x
 165.871967 1  1000001x        Rx   d 8 A4 00 1E 00 00 00 00 00  Length = 286000 BitCount = 147 ID = 16777217x
 165.993807 1  18ECFF2Bx       Rx   d 8 20 0A 00 02 FF CA FE 00  Length = 276000 BitCount = 142 ID = 418185003x
 166.139198 1  18EBFF2Bx       Rx   d 8 01 00 FF 21 F7 E5 01 A8  Length = 272000 BitCount = 140 ID = 418119467x
 166.284692 1  18EBFF2Bx       Rx   d 8 02 00 04 01 FF FF FF FF  Length = 278000 BitCount = 143 ID = 418119467x
 166.880783 1  1000001x        Rx   d 8 A5 00 1E 00 00 00 00 00  Length = 284000 BitCount = 146 ID = 16777217x
 166.994318 1  18ECFF2Bx       Rx   d 8 20 0A 00 02 FF CA FE 00  Length = 276000 BitCount = 142 ID = 418185003x
 167.139018 1  18EBFF2Bx       Rx   d 8 01 00 FF 21 F7 E5 01 A8  Length = 272000 BitCount = 140 ID = 418119467x
 167.284626 1  18EBFF2Bx       Rx   d 8 02 00 04 01 FF FF FF FF  Length = 278000 BitCount = 143 ID = 418119467x
 167.891774 1  1000001x        Rx   d 8 A6 00 1E 00 00 00 00 00  Length = 286000 BitCount = 147 ID = 16777217x
 167.993693 1  18ECFF2Bx       Rx   d 8 20 0A 00 02 FF CA FE 00  Length = 276000 BitCount = 142 ID = 418185003x
 168.138839 1  18EBFF2Bx       Rx   d 8 01 00 FF 21 F7 E5 01 A8  Length = 272000 BitCount = 140 ID = 418119467x
 168.284325 1  18EBFF2Bx       Rx   d 8 02 00 04 01 FF FF FF FF  Length = 278000 BitCount = 143 ID = 418119467x
 168.899265 1  1000001x        Rx   d 8 A7 00 1E 00 00 00 00 00  Length = 284000 BitCount = 146 ID = 16777217x
 168.994176 1  18ECFF2Bx       Rx   d 8 20 0A 00 02 FF CA FE 00  Length = 276000 BitCount = 142 ID = 418185003x
 169.139154 1  18EBFF2Bx       Rx   d 8 01 00 FF 21 F7 E5 01 A8  Length = 272000 BitCount = 140 ID = 418119467x
 169.284555 1  18EBFF2Bx       Rx   d 8 02 00 04 01 FF FF FF FF  Length = 278000 BitCount = 143 ID = 418119467x
 169.902334 1  1000001x        Rx   d 8 A8 00 1E 00 00 00 00 00  Length = 284000 BitCount = 146 ID = 16777217x
 169.994526 1  18ECFF2Bx       Rx   d 8 20 0A 00 02 FF CA FE 00  Length = 276000 BitCount = 142 ID = 418185003x
 170.139361 1  18EBFF2Bx       Rx   d 8 01 00 FF 21 F7 E5 01 A8  Length = 272000 BitCount = 140 ID = 418119467x
 170.284760 1  18EBFF2Bx       Rx   d 8 02 00 04 01 FF FF FF FF  Length = 278000 BitCount = 143 ID = 418119467x
 170.529978 1  1868FFF9x       Rx   d 8 FF F0 FF FF FF FF FF FF  Length = 284000 BitCount = 146 ID = 409534457x
 170.904809 1  1000001x        Rx   d 8 A9 00 1E 00 00 00 00 00  Length = 284000 BitCount = 146 ID = 16777217x
 170.993906 1  18ECFF2Bx       Rx   d 8 20 0A 00 02 FF CA FE 00  Length = 276000 BitCount = 142 ID = 418185003x
 171.139524 1  18EBFF2Bx       Rx   d 8 01 00 FF 21 F7 E5 01 A8  Length = 272000 BitCount = 140 ID = 418119467x
 171.285181 1  18EBFF2Bx       Rx   d 8 02 00 04 01 FF FF FF FF  Length = 278000 BitCount = 143 ID = 418119467x
 171.906195 1  1000001x        Rx   d 8 AA 00 1E 00 00 00 00 00  Length = 288000 BitCount = 148 ID = 16777217x
 171.994363 1  18ECFF2Bx       Rx   d 8 20 0A 00 02 FF CA FE 00  Length = 276000 BitCount = 142 ID = 418185003x
 172.139570 1  18EBFF2Bx       Rx   d 8 01 00 FF 21 F7 E5 01 A8  Length = 272000 BitCount = 140 ID = 418119467x
 172.285291 1  18EBFF2Bx       Rx   d 8 02 00 04 01 FF FF FF FF  Length = 278000 BitCount = 143 ID = 418119467x
 172.912198 1  1000001x        Rx   d 8 AB 00 1E 00 00 00 00 00  Length = 284000 BitCount = 146 ID = 16777217x
 172.994053 1  18ECFF2Bx       Rx   d 8 20 0A 00 02 FF CA FE 00  Length = 276000 BitCount = 142 ID = 418185003x
 173.138619 1  18EBFF2Bx       Rx   d 8 01 00 FF 21 F7 E5 01 A8  Length = 272000 BitCount = 140 ID = 418119467x
 173.283971 1  18EBFF2Bx       Rx   d 8 02 00 04 01 FF FF FF FF  Length = 278000 BitCount = 143 ID = 418119467x
 173.919394 1  1000001x        Rx   d 8 AC 00 1E 00 00 00 00 00  Length = 286000 BitCount = 147 ID = 16777217x
 173.994445 1  18ECFF2Bx       Rx   d 8 20 0A 00 02 FF CA FE 00  Length = 276000 BitCount = 142 ID = 418185003x
 174.139830 1  18EBFF2Bx       Rx   d 8 01 00 FF 21 F7 E5 01 A8  Length = 272000 BitCount = 140 ID = 418119467x
 174.285266 1  18EBFF2Bx       Rx   d 8 02 00 04 01 FF FF FF FF  Length = 278000 BitCount = 143 ID = 418119467x
 174.929925 1  1000001x        Rx   d 8 AD 00 1E 00 00 00 00 00  Length = 284000 BitCount = 146 ID = 16777217x
 174.994400 1  18ECFF2Bx       Rx   d 8 20 0A 00 02 FF CA FE 00  Length = 276000 BitCount = 142 ID = 418185003x
 175.139801 1  18EBFF2Bx       Rx   d 8 01 00 FF 21 F7 E5 01 A8  Length = 272000 BitCount = 140 ID = 418119467x
 175.285238 1  18EBFF2Bx       Rx   d 8 02 00 04 01 FF FF FF FF  Length = 278000 BitCount = 143 ID = 418119467x
 175.932954 1  1000001x        Rx   d 8 AE 00 1E 00 00 00 00 00  Length = 284000 BitCount = 146 ID = 16777217x
 175.994695 1  18ECFF2Bx       Rx   d 8 20 0A 00 02 FF CA FE 00  Length = 276000 BitCount = 142 ID = 418185003x
 176.140368 1  18EBFF2Bx       Rx   d 8 01 00 FF 21 F7 E5 01 A8  Length = 272000 BitCount = 140 ID = 418119467x
 176.285952 1  18EBFF2Bx       Rx   d 8 02 00 04 01 FF FF FF FF  Length = 278000 BitCount = 143 ID = 418119467x
 176.935757 1  1000001x        Rx   d 8 AF 00 1E 00 00 00 00 00  Length = 284000 BitCount = 146 ID = 16777217x
 176.994710 1  18ECFF2Bx       Rx   d 8 20 0A 00 02 FF CA FE 00  Length = 276000 BitCount = 142 ID = 418185003x
 177.140381 1  18EBFF2Bx       Rx   d 8 01 00 FF 21 F7 E5 01 A8  Length = 272000 BitCount = 140 ID = 418119467x
 177.285846 1  18EBFF2Bx       Rx   d 8 02 00 04 01 FF FF FF FF  Length = 278000 BitCount = 143 ID = 418119467x
 177.943434 1  1000001x        Rx   d 8 B0 00 1E 00 00 00 00 00  Length = 288000 BitCount = 148 ID = 16777217x
 177.993972 1  18ECFF2Bx       Rx   d 8 20 0A 00 02 FF CA FE 00  Length = 276000 BitCount = 142 ID = 418185003x
 178.138790 1  18EBFF2Bx       Rx   d 8 01 00 FF 21 F7 E5 01 A8  Length = 272000 BitCount = 140 ID = 418119467x
 178.284425 1  18EBFF2Bx       Rx   d 8 02 00 04 01 FF FF FF FF  Length = 278000 BitCount = 143 ID = 418119467x
 178.950736 1  1000001x        Rx   d 8 B1 00 1E 00 00 00 00 00  Length = 284000 BitCount = 146 ID = 16777217x
 178.993380 1  18ECFF2Bx       Rx   d 8 20 0A 00 02 FF CA FE 00  Length = 276000 BitCount = 142 ID = 418185003x
 179.138177 1  18EBFF2Bx       Rx   d 8 01 00 FF 21 F7 E5 01 A8  Length = 272000 BitCount = 140 ID = 418119467x
 179.283722 1  18EBFF2Bx       Rx   d 8 02 00 04 01 FF FF FF FF  Length = 278000 BitCount = 143 ID = 418119467x
 179.959214 1  1000001x        Rx   d 8 B2 00 1E 00 00 00 00 00  Length = 284000 BitCount = 146 ID = 16777217x
 179.993857 1  18ECFF2Bx       Rx   d 8 20 0A 00 02 FF CA FE 00  Length = 276000 BitCount = 142 ID = 418185003x
 180.139335 1  18EBFF2Bx       Rx   d 8 01 00 FF 21 F7 E5 01 A8  Length = 272000 BitCount = 140 ID = 418119467x
 180.284993 1  18EBFF2Bx       Rx   d 8 02 00 04 01 FF FF FF FF  Length = 278000 BitCount = 143 ID = 418119467x
 180.530500 1  1868FFF9x       Rx   d 8 FF F0 FF FF FF FF FF FF  Length = 284000 BitCount = 146 ID = 409534457x
 180.971271 1  1000001x        Rx   d 8 B3 00 1E 00 00 00 00 00  Length = 284000 BitCount = 146 ID = 16777217x
 180.994926 1  18ECFF2Bx       Rx   d 8 20 0A 00 02 FF CA FE 00  Length = 276000 BitCount = 142 ID = 418185003x
 181.139770 1  18EBFF2Bx       Rx   d 8 01 00 FF 21 F7 E5 01 A8  Length = 272000 BitCount = 140 ID = 418119467x
 181.285415 1  18EBFF2Bx       Rx   d 8 02 00 04 01 FF FF FF FF  Length = 278000 BitCount = 143 ID = 418119467x
 181.982513 1  1000001x        Rx   d 8 B4 00 1E 00 00 00 00 00  Length = 284000 BitCount = 146 ID = 16777217x
 181.995122 1  18ECFF2Bx       Rx   d 8 20 0A 00 02 FF CA FE 00  Length = 276000 BitCount = 142 ID = 418185003x
 182.140527 1  18EBFF2Bx       Rx   d 8 01 00 FF 21 F7 E5 01 A8  Length = 272000 BitCount = 140 ID = 418119467x
 182.286125 1  18EBFF2Bx       Rx   d 8 02 00 04 01 FF FF FF FF  Length = 278000 BitCount = 143 ID = 418119467x
 182.992761 1  1000001x        Rx   d 8 B5 00 1E 00 00 00 00 00  Length = 284000 BitCount = 146 ID = 16777217x
 182.993442 1  18ECFF2Bx       Rx   d 8 20 0A 00 02 FF CA FE 00  Length = 276000 BitCount = 142 ID = 418185003x
 183.138372 1  18EBFF2Bx       Rx   d 8 01 00 FF 21 F7 E5 01 A8  Length = 272000 BitCount = 140 ID = 418119467x
 183.284199 1  18EBFF2Bx       Rx   d 8 02 00 04 01 FF FF FF FF  Length = 278000 BitCount = 143 ID = 418119467x
 183.993985 1  18ECFF2Bx       Rx   d 8 20 0A 00 02 FF CA FE 00  Length = 276000 BitCount = 142 ID = 418185003x
 184.009071 1  1000001x        Rx   d 8 B6 00 1E 00 00 00 00 00  Length = 286000 BitCount = 147 ID = 16777217x
 184.139652 1  18EBFF2Bx       Rx   d 8 01 00 FF 21 F7 E5 01 A8  Length = 272000 BitCount = 140 ID = 418119467x
 184.285613 1  18EBFF2Bx       Rx   d 8 02 00 04 01 FF FF FF FF  Length = 278000 BitCount = 143 ID = 418119467x
 184.993421 1  18ECFF2Bx       Rx   d 8 20 0A 00 02 FF CA FE 00  Length = 276000 BitCount = 142 ID = 418185003x
 185.017994 1  1000001x        Rx   d 8 B7 00 1E 00 00 00 00 00  Length = 286000 BitCount = 147 ID = 16777217x
 185.138543 1  18EBFF2Bx       Rx   d 8 01 00 FF 21 F7 E5 01 A8  Length = 272000 BitCount = 140 ID = 418119467x
 185.284131 1  18EBFF2Bx       Rx   d 8 02 00 04 01 FF FF FF FF  Length = 278000 BitCount = 143 ID = 418119467x
 185.994232 1  18ECFF2Bx       Rx   d 8 20 0A 00 02 FF CA FE 00  Length = 276000 BitCount = 142 ID = 418185003x
 186.025429 1  1000001x        Rx   d 8 B8 00 1E 00 00 00 00 00  Length = 284000 BitCount = 146 ID = 16777217x
 186.138806 1  18EBFF2Bx       Rx   d 8 01 00 FF 21 F7 E5 01 A8  Length = 272000 BitCount = 140 ID = 418119467x
 186.284463 1  18EBFF2Bx       Rx   d 8 02 00 04 01 FF FF FF FF  Length = 278000 BitCount = 143 ID = 418119467x
 186.994068 1  18ECFF2Bx       Rx   d 8 20 0A 00 02 FF CA FE 00  Length = 276000 BitCount = 142 ID = 418185003x
 187.033607 1  1000001x        Rx   d 8 B9 00 1E 00 00 00 00 00  Length = 284000 BitCount = 146 ID = 16777217x
 187.139497 1  18EBFF2Bx       Rx   d 8 01 00 FF 21 F7 E5 01 A8  Length = 272000 BitCount = 140 ID = 418119467x
 187.285432 1  18EBFF2Bx       Rx   d 8 02 00 04 01 FF FF FF FF  Length = 278000 BitCount = 143 ID = 418119467x
 187.993477 1  18ECFF2Bx       Rx   d 8 20 0A 00 02 FF CA FE 00  Length = 276000 BitCount = 142 ID = 418185003x
 188.036377 1  1000001x        Rx   d 8 BA 00 1E 00 00 00 00 00  Length = 284000 BitCount = 146 ID = 16777217x
 188.138882 1  18EBFF2Bx       Rx   d 8 01 00 FF 21 F7 E5 01 A8  Length = 272000 BitCount = 140 ID = 418119467x
 188.284678 1  18EBFF2Bx       Rx   d 8 02 00 04 01 FF FF FF FF  Length = 278000 BitCount = 143 ID = 418119467x
 188.993751 1  18ECFF2Bx       Rx   d 8 20 0A 00 02 FF CA FE 00  Length = 276000 BitCount = 142 ID = 418185003x
 189.047225 1  1000001x        Rx   d 8 BB 00 1E 00 00 00 00 00  Length = 284000 BitCount = 146 ID = 16777217x
 189.139442 1  18EBFF2Bx       Rx   d 8 01 00 FF 21 F7 E5 01 A8  Length = 272000 BitCount = 140 ID = 418119467x
 189.285555 1  18EBFF2Bx       Rx   d 8 02 00 04 01 FF FF FF FF  Length = 278000 BitCount = 143 ID = 418119467x
 189.993024 1  18ECFF2Bx       Rx   d 8 20 0A 00 02 FF CA FE 00  Length = 276000 BitCount = 142 ID = 418185003x
 190.050876 1  1000001x        Rx   d 8 BC 00 1E 00 00 00 00 00  Length = 286000 BitCount = 147 ID = 16777217x
 190.138014 1  18EBFF2Bx       Rx   d 8 01 00 FF 21 F7 E5 01 A8  Length = 272000 BitCount = 140 ID = 418119467x
 190.283874 1  18EBFF2Bx       Rx   d 8 02 00 04 01 FF FF FF FF  Length = 278000 BitCount = 143 ID = 418119467x
 190.530729 1  1868FFF9x       Rx   d 8 FF F0 FF FF FF FF FF FF  Length = 284000 BitCount = 146 ID = 409534457x
 190.993485 1  18ECFF2Bx       Rx   d 8 20 0A 00 02 FF CA FE 00  Length = 276000 BitCount = 142 ID = 418185003x
 191.055592 1  1000001x        Rx   d 8 BD 00 1E 00 00 00 00 00  Length = 284000 BitCount = 146 ID = 16777217x
 191.138806 1  18EBFF2Bx       Rx   d 8 01 00 FF 21 F7 E5 01 A8  Length = 272000 BitCount = 140 ID = 418119467x
 191.284572 1  18EBFF2Bx       Rx   d 8 02 00 04 01 FF FF FF FF  Length = 278000 BitCount = 143 ID = 418119467x
 191.993253 1  18ECFF2Bx       Rx   d 8 20 0A 00 02 FF CA FE 00  Length = 276000 BitCount = 142 ID = 418185003x
 192.063759 1  1000001x        Rx   d 8 BE 00 1E 00 00 00 00 00  Length = 286000 BitCount = 147 ID = 16777217x
 192.138691 1  18EBFF2Bx       Rx   d 8 01 00 FF 21 F7 E5 01 A8  Length = 272000 BitCount = 140 ID = 418119467x
 192.284552 1  18EBFF2Bx       Rx   d 8 02 00 04 01 FF FF FF FF  Length = 278000 BitCount = 143 ID = 418119467x
 192.993656 1  18ECFF2Bx       Rx   d 8 20 0A 00 02 FF CA FE 00  Length = 276000 BitCount = 142 ID = 418185003x
 193.078353 1  1000001x        Rx   d 8 BF 00 1E 00 00 00 00 00  Length = 286000 BitCount = 147 ID = 16777217x
 193.138952 1  18EBFF2Bx       Rx   d 8 01 00 FF 21 F7 E5 01 A8  Length = 272000 BitCount = 140 ID = 418119467x
 193.284669 1  18EBFF2Bx       Rx   d 8 02 00 04 01 FF FF FF FF  Length = 278000 BitCount = 143 ID = 418119467x
 193.993011 1  18ECFF2Bx       Rx   d 8 20 0A 00 02 FF CA FE 00  Length = 276000 BitCount = 142 ID = 418185003x
 194.085216 1  1000001x        Rx   d 8 C0 00 1E 00 00 00 00 00  Length = 286000 BitCount = 147 ID = 16777217x
 194.138125 1  18EBFF2Bx       Rx   d 8 01 00 FF 21 F7 E5 01 A8  Length = 272000 BitCount = 140 ID = 418119467x
 194.284010 1  18EBFF2Bx       Rx   d 8 02 00 04 01 FF FF FF FF  Length = 278000 BitCount = 143 ID = 418119467x
 194.993505 1  18ECFF2Bx       Rx   d 8 20 0A 00 02 FF CA FE 00  Length = 276000 BitCount = 142 ID = 418185003x
 195.094639 1  1000001x        Rx   d 8 C1 00 1E 00 00 00 00 00  Length = 286000 BitCount = 147 ID = 16777217x
 195.139101 1  18EBFF2Bx       Rx   d 8 01 00 FF 21 F7 E5 01 A8  Length = 272000 BitCount = 140 ID = 418119467x
 195.285345 1  18EBFF2Bx       Rx   d 8 02 00 04 01 FF FF FF FF  Length = 278000 BitCount = 143 ID = 418119467x
 195.993065 1  18ECFF2Bx       Rx   d 8 20 0A 00 02 FF CA FE 00  Length = 276000 BitCount = 142 ID = 418185003x
 196.103879 1  1000001x        Rx   d 8 C2 00 1E 00 00 00 00 00  Length = 284000 BitCount = 146 ID = 16777217x
 196.140831 1  18EBFF2Bx       Rx   d 8 01 00 FF 21 F7 E5 01 A8  Length = 272000 BitCount = 140 ID = 418119467x
 196.288996 1  18EBFF2Bx       Rx   d 8 02 00 04 01 FF FF FF FF  Length = 278000 BitCount = 143 ID = 418119467x
 196.993679 1  18ECFF2Bx       Rx   d 8 20 0A 00 02 FF CA FE 00  Length = 276000 BitCount = 142 ID = 418185003x
 197.116497 1  1000001x        Rx   d 8 C3 00 1E 00 00 00 00 00  Length = 286000 BitCount = 147 ID = 16777217x
 197.141099 1  18EBFF2Bx       Rx   d 8 01 00 FF 21 F7 E5 01 A8  Length = 272000 BitCount = 140 ID = 418119467x
 197.288026 1  18EBFF2Bx       Rx   d 8 02 00 04 01 FF FF FF FF  Length = 278000 BitCount = 143 ID = 418119467x
 197.747799 1  714             Rx   d 8 03 19 02 AC 81 81 81 81  Length = 228000 BitCount = 118 ID = 1812
 197.993026 1  18ECFF2Bx       Rx   d 8 20 0A 00 02 FF CA FE 00  Length = 276000 BitCount = 142 ID = 418185003x
 198.122805 1  1000001x        Rx   d 8 C4 00 1E 00 00 00 00 00  Length = 286000 BitCount = 147 ID = 16777217x
 198.138208 1  18EBFF2Bx       Rx   d 8 01 00 FF 21 F7 E5 01 A8  Length = 272000 BitCount = 140 ID = 418119467x
 198.285023 1  18EBFF2Bx       Rx   d 8 02 00 04 01 FF FF FF FF  Length = 278000 BitCount = 143 ID = 418119467x
 198.993655 1  18ECFF2Bx       Rx   d 8 20 0A 00 02 FF CA FE 00  Length = 276000 BitCount = 142 ID = 418185003x
 199.130421 1  1000001x        Rx   d 8 C5 00 1E 00 00 00 00 00  Length = 286000 BitCount = 147 ID = 16777217x
 199.143914 1  18EBFF2Bx       Rx   d 8 01 00 FF 21 F7 E5 01 A8  Length = 272000 BitCount = 140 ID = 418119467x
 199.294781 1  18EBFF2Bx       Rx   d 8 02 00 04 01 FF FF FF FF  Length = 278000 BitCount = 143 ID = 418119467x
 199.993356 1  18ECFF2Bx       Rx   d 8 20 0A 00 02 FF CA FE 00  Length = 276000 BitCount = 142 ID = 418185003x
 200.140427 1  1000001x        Rx   d 8 C6 00 1E 00 00 00 00 00  Length = 284000 BitCount = 146 ID = 16777217x
 200.144456 1  18EBFF2Bx       Rx   d 8 01 00 FF 21 F7 E5 01 A8  Length = 272000 BitCount = 140 ID = 418119467x
 200.296674 1  18EBFF2Bx       Rx   d 8 02 00 04 01 FF FF FF FF  Length = 278000 BitCount = 143 ID = 418119467x
 200.531119 1  1868FFF9x       Rx   d 8 FF F0 FF FF FF FF FF FF  Length = 284000 BitCount = 146 ID = 409534457x
 200.993085 1  18ECFF2Bx       Rx   d 8 20 0A 00 02 FF CA FE 00  Length = 276000 BitCount = 142 ID = 418185003x
 201.144408 1  18EBFF2Bx       Rx   d 8 01 00 FF 21 F7 E5 01 A8  Length = 272000 BitCount = 140 ID = 418119467x
 201.154131 1  1000001x        Rx   d 8 C7 00 1E 00 00 00 00 00  Length = 286000 BitCount = 147 ID = 16777217x
 201.296959 1  18EBFF2Bx       Rx   d 8 02 00 04 01 FF FF FF FF  Length = 278000 BitCount = 143 ID = 418119467x
 201.993658 1  18ECFF2Bx       Rx   d 8 20 0A 00 02 FF CA FE 00  Length = 276000 BitCount = 142 ID = 418185003x
 202.140505 1  18EBFF2Bx       Rx   d 8 01 00 FF 21 F7 E5 01 A8  Length = 272000 BitCount = 140 ID = 418119467x
 202.157297 1  1000001x        Rx   d 8 C8 00 1E 00 00 00 00 00  Length = 284000 BitCount = 146 ID = 16777217x
 202.286561 1  18EBFF2Bx       Rx   d 8 02 00 04 01 FF FF FF FF  Length = 278000 BitCount = 143 ID = 418119467x
 202.992946 1  18ECFF2Bx       Rx   d 8 20 0A 00 02 FF CA FE 00  Length = 276000 BitCount = 142 ID = 418185003x
 203.138064 1  18EBFF2Bx       Rx   d 8 01 00 FF 21 F7 E5 01 A8  Length = 272000 BitCount = 140 ID = 418119467x
 203.164271 1  1000001x        Rx   d 8 C9 00 1E 00 00 00 00 00  Length = 286000 BitCount = 147 ID = 16777217x
 203.283710 1  18EBFF2Bx       Rx   d 8 02 00 04 01 FF FF FF FF  Length = 278000 BitCount = 143 ID = 418119467x
 203.993433 1  18ECFF2Bx       Rx   d 8 20 0A 00 02 FF CA FE 00  Length = 276000 BitCount = 142 ID = 418185003x
 204.138261 1  18EBFF2Bx       Rx   d 8 01 00 FF 21 F7 E5 01 A8  Length = 272000 BitCount = 140 ID = 418119467x
 204.166106 1  1000001x        Rx   d 8 CA 00 1E 00 00 00 00 00  Length = 286000 BitCount = 147 ID = 16777217x
 204.283945 1  18EBFF2Bx       Rx   d 8 02 00 04 01 FF FF FF FF  Length = 278000 BitCount = 143 ID = 418119467x
 204.992973 1  18ECFF2Bx       Rx   d 8 20 0A 00 02 FF CA FE 00  Length = 276000 BitCount = 142 ID = 418185003x
 205.138541 1  18EBFF2Bx       Rx   d 8 01 00 FF 21 F7 E5 01 A8  Length = 272000 BitCount = 140 ID = 418119467x
 205.171590 1  1000001x        Rx   d 8 CB 00 1E 00 00 00 00 00  Length = 284000 BitCount = 146 ID = 16777217x
 205.284075 1  18EBFF2Bx       Rx   d 8 02 00 04 01 FF FF FF FF  Length = 278000 BitCount = 143 ID = 418119467x
 205.993155 1  18ECFF2Bx       Rx   d 8 20 0A 00 02 FF CA FE 00  Length = 276000 BitCount = 142 ID = 418185003x
 206.139131 1  18EBFF2Bx       Rx   d 8 01 00 FF 21 F7 E5 01 A8  Length = 272000 BitCount = 140 ID = 418119467x
 206.194092 1  1000001x        Rx   d 8 CC 00 1E 00 00 00 00 00  Length = 286000 BitCount = 147 ID = 16777217x
 206.284798 1  18EBFF2Bx       Rx   d 8 02 00 04 01 FF FF FF FF  Length = 278000 BitCount = 143 ID = 418119467x
 206.992651 1  18ECFF2Bx       Rx   d 8 20 0A 00 02 FF CA FE 00  Length = 276000 BitCount = 142 ID = 418185003x
 207.137387 1  18EBFF2Bx       Rx   d 8 01 00 FF 21 F7 E5 01 A8  Length = 272000 BitCount = 140 ID = 418119467x
 207.199059 1  1000001x        Rx   d 8 CD 00 1E 00 00 00 00 00  Length = 284000 BitCount = 146 ID = 16777217x
 207.283276 1  18EBFF2Bx       Rx   d 8 02 00 04 01 FF FF FF FF  Length = 278000 BitCount = 143 ID = 418119467x
 207.993090 1  18ECFF2Bx       Rx   d 8 20 0A 00 02 FF CA FE 00  Length = 276000 BitCount = 142 ID = 418185003x
 208.137941 1  18EBFF2Bx       Rx   d 8 01 00 FF 21 F7 E5 01 A8  Length = 272000 BitCount = 140 ID = 418119467x
 208.202091 1  1000001x        Rx   d 8 CE 00 1E 00 00 00 00 00  Length = 286000 BitCount = 147 ID = 16777217x
 208.283489 1  18EBFF2Bx       Rx   d 8 02 00 04 01 FF FF FF FF  Length = 278000 BitCount = 143 ID = 418119467x
 208.992590 1  18ECFF2Bx       Rx   d 8 20 0A 00 02 FF CA FE 00  Length = 276000 BitCount = 142 ID = 418185003x
 209.137407 1  18EBFF2Bx       Rx   d 8 01 00 FF 21 F7 E5 01 A8  Length = 272000 BitCount = 140 ID = 418119467x
 209.211723 1  1000001x        Rx   d 8 CF 00 1E 00 00 00 00 00  Length = 288000 BitCount = 148 ID = 16777217x
 209.282943 1  18EBFF2Bx       Rx   d 8 02 00 04 01 FF FF FF FF  Length = 278000 BitCount = 143 ID = 418119467x
 209.992926 1  18ECFF2Bx       Rx   d 8 20 0A 00 02 FF CA FE 00  Length = 276000 BitCount = 142 ID = 418185003x
 210.137694 1  18EBFF2Bx       Rx   d 8 01 00 FF 21 F7 E5 01 A8  Length = 272000 BitCount = 140 ID = 418119467x
 210.222635 1  1000001x        Rx   d 8 D0 00 1E 00 00 00 00 00  Length = 288000 BitCount = 148 ID = 16777217x
 210.283375 1  18EBFF2Bx       Rx   d 8 02 00 04 01 FF FF FF FF  Length = 278000 BitCount = 143 ID = 418119467x
 210.531590 1  1868FFF9x       Rx   d 8 FF F0 FF FF FF FF FF FF  Length = 284000 BitCount = 146 ID = 409534457x
 210.992488 1  18ECFF2Bx       Rx   d 8 20 0A 00 02 FF CA FE 00  Length = 276000 BitCount = 142 ID = 418185003x
 211.137859 1  18EBFF2Bx       Rx   d 8 01 00 FF 21 F7 E5 01 A8  Length = 272000 BitCount = 140 ID = 418119467x
 211.235937 1  1000001x        Rx   d 8 D1 00 1E 00 00 00 00 00  Length = 286000 BitCount = 147 ID = 16777217x
 211.283552 1  18EBFF2Bx       Rx   d 8 02 00 04 01 FF FF FF FF  Length = 278000 BitCount = 143 ID = 418119467x
 211.992907 1  18ECFF2Bx       Rx   d 8 20 0A 00 02 FF CA FE 00  Length = 276000 BitCount = 142 ID = 418185003x
 212.138193 1  18EBFF2Bx       Rx   d 8 01 00 FF 21 F7 E5 01 A8  Length = 272000 BitCount = 140 ID = 418119467x
 212.244768 1  1000001x        Rx   d 8 D2 00 1E 00 00 00 00 00  Length = 284000 BitCount = 146 ID = 16777217x
 212.283872 1  18EBFF2Bx       Rx   d 8 02 00 04 01 FF FF FF FF  Length = 278000 BitCount = 143 ID = 418119467x
 212.992325 1  18ECFF2Bx       Rx   d 8 20 0A 00 02 FF CA FE 00  Length = 276000 BitCount = 142 ID = 418185003x
 213.137176 1  18EBFF2Bx       Rx   d 8 01 00 FF 21 F7 E5 01 A8  Length = 272000 BitCount = 140 ID = 418119467x
 213.247715 1  1000001x        Rx   d 8 D3 00 1E 00 00 00 00 00  Length = 284000 BitCount = 146 ID = 16777217x
 213.283111 1  18EBFF2Bx       Rx   d 8 02 00 04 01 FF FF FF FF  Length = 278000 BitCount = 143 ID = 418119467x
 213.992795 1  18ECFF2Bx       Rx   d 8 20 0A 00 02 FF CA FE 00  Length = 276000 BitCount = 142 ID = 418185003x
 214.137494 1  18EBFF2Bx       Rx   d 8 01 00 FF 21 F7 E5 01 A8  Length = 272000 BitCount = 140 ID = 418119467x
 214.264087 1  1000001x        Rx   d 8 D4 00 1E 00 00 00 00 00  Length = 284000 BitCount = 146 ID = 16777217x
 214.283080 1  18EBFF2Bx       Rx   d 8 02 00 04 01 FF FF FF FF  Length = 278000 BitCount = 143 ID = 418119467x
 214.992282 1  18ECFF2Bx       Rx   d 8 20 0A 00 02 FF CA FE 00  Length = 276000 BitCount = 142 ID = 418185003x
 215.137464 1  18EBFF2Bx       Rx   d 8 01 00 FF 21 F7 E5 01 A8  Length = 272000 BitCount = 140 ID = 418119467x
 215.270026 1  1000001x        Rx   d 8 D5 00 1E 00 00 00 00 00  Length = 286000 BitCount = 147 ID = 16777217x
 215.283156 1  18EBFF2Bx       Rx   d 8 02 00 04 01 FF FF FF FF  Length = 278000 BitCount = 143 ID = 418119467x
 215.992761 1  18ECFF2Bx       Rx   d 8 20 0A 00 02 FF CA FE 00  Length = 276000 BitCount = 142 ID = 418185003x
 216.137807 1  18EBFF2Bx       Rx   d 8 01 00 FF 21 F7 E5 01 A8  Length = 272000 BitCount = 140 ID = 418119467x
 216.278623 1  1000001x        Rx   d 8 D6 00 1E 00 00 00 00 00  Length = 286000 BitCount = 147 ID = 16777217x
 216.283328 1  18EBFF2Bx       Rx   d 8 02 00 04 01 FF FF FF FF  Length = 278000 BitCount = 143 ID = 418119467x
 216.992256 1  18ECFF2Bx       Rx   d 8 20 0A 00 02 FF CA FE 00  Length = 276000 BitCount = 142 ID = 418185003x
 217.137389 1  18EBFF2Bx       Rx   d 8 01 00 FF 21 F7 E5 01 A8  Length = 272000 BitCount = 140 ID = 418119467x
 217.282966 1  18EBFF2Bx       Rx   d 8 02 00 04 01 FF FF FF FF  Length = 278000 BitCount = 143 ID = 418119467x
