date Fri Sep 24 12:37:9 am 2021
base dec  no internal events logged
// version 7.1.0
45431.018700 1 0514 Rx d 8 000 000 000 000 000 000 000 000 
45431.018700 1 0513 Rx d 8 000 000 000 000 000 000 000 000 
45431.018700 1 16777217x Rx d 8 000 000 000 000 000 000 000 000 
45436.036300 1 0514 Rx d 8 001 000 000 000 000 000 000 000 
45436.036300 1 0513 Rx d 8 001 000 000 000 000 000 000 000 
45436.036300 1 16777217x Rx d 8 001 000 000 000 000 000 000 000 
45441.053900 1 0514 Rx d 8 002 000 000 000 000 000 000 000 
45441.053900 1 0513 Rx d 8 002 000 000 000 000 000 000 000 
45441.053900 1 16777217x Rx d 8 002 000 000 000 000 000 000 000 
45445.969100 1 0514 Rx d 8 003 000 000 000 000 000 000 000 
45445.969100 1 0513 Rx d 8 003 000 000 000 000 000 000 000 
45445.969100 1 16777217x Rx d 8 003 000 000 000 000 000 000 000 
45451.089100 1 0514 Rx d 8 004 000 000 000 000 000 000 000 
45451.089100 1 0513 Rx d 8 004 000 000 000 000 000 000 000 
45451.089100 1 16777217x Rx d 8 004 000 000 000 000 000 000 000 
45456.106700 1 0514 Rx d 8 005 000 000 000 000 000 000 000 
45456.106700 1 0513 Rx d 8 005 000 000 000 000 000 000 000 
45456.106700 1 16777217x Rx d 8 005 000 000 000 000 000 000 000 
45461.021900 1 0514 Rx d 8 006 000 000 000 000 000 000 000 
45461.021900 1 0513 Rx d 8 006 000 000 000 000 000 000 000 
45461.021900 1 16777217x Rx d 8 006 000 000 000 000 000 000 000 
45466.039500 1 0514 Rx d 8 007 000 000 000 000 000 000 000 
45466.039500 1 0513 Rx d 8 007 000 000 000 000 000 000 000 
45466.039500 1 16777217x Rx d 8 007 000 000 000 000 000 000 000 
45471.057100 1 0514 Rx d 8 008 000 000 000 000 000 000 000 
45471.057100 1 0513 Rx d 8 008 000 000 000 000 000 000 000 
45471.057100 1 16777217x Rx d 8 008 000 000 000 000 000 000 000 
45476.177100 1 0514 Rx d 8 009 000 000 000 000 000 000 000 
45476.177100 1 0513 Rx d 8 009 000 000 000 000 000 000 000 
45476.177100 1 16777217x Rx d 8 009 000 000 000 000 000 000 000 
45481.092300 1 0514 Rx d 8 010 000 000 000 000 000 000 000 
45481.092300 1 0513 Rx d 8 010 000 000 000 000 000 000 000 
45481.092300 1 16777217x Rx d 8 010 000 000 000 000 000 000 000 
45486.109900 1 0514 Rx d 8 011 000 000 000 000 000 000 000 
45486.109900 1 0513 Rx d 8 011 000 000 000 000 000 000 000 
45486.109900 1 16777217x Rx d 8 011 000 000 000 000 000 000 000 
45491.127500 1 0514 Rx d 8 012 000 000 000 000 000 000 000 
45491.127500 1 0513 Rx d 8 012 000 000 000 000 000 000 000 
45491.127500 1 16777217x Rx d 8 012 000 000 000 000 000 000 000 
45496.042700 1 0514 Rx d 8 013 000 000 000 000 000 000 000 
45496.042700 1 0513 Rx d 8 013 000 000 000 000 000 000 000 
45496.042700 1 16777217x Rx d 8 013 000 000 000 000 000 000 000 
45501.060300 1 0514 Rx d 8 014 000 000 000 000 000 000 000 
45501.060300 1 0513 Rx d 8 014 000 000 000 000 000 000 000 
45501.060300 1 16777217x Rx d 8 014 000 000 000 000 000 000 000 
45506.180300 1 0514 Rx d 8 015 000 000 000 000 000 000 000 
45506.180300 1 0513 Rx d 8 015 000 000 000 000 000 000 000 
45506.180300 1 16777217x Rx d 8 015 000 000 000 000 000 000 000 
45511.095500 1 0514 Rx d 8 016 000 000 000 000 000 000 000 
45511.095500 1 0513 Rx d 8 016 000 000 000 000 000 000 000 
45511.095500 1 16777217x Rx d 8 016 000 000 000 000 000 000 000 
45516.113100 1 0514 Rx d 8 017 000 000 000 000 000 000 000 
45516.113100 1 0513 Rx d 8 017 000 000 000 000 000 000 000 
45516.113100 1 16777217x Rx d 8 017 000 000 000 000 000 000 000 
45521.130700 1 0514 Rx d 8 018 000 000 000 000 000 000 000 
45521.130700 1 0513 Rx d 8 018 000 000 000 000 000 000 000 
45521.130700 1 16777217x Rx d 8 018 000 000 000 000 000 000 000 
45526.045900 1 0514 Rx d 8 019 000 000 000 000 000 000 000 
45526.045900 1 0513 Rx d 8 019 000 000 000 000 000 000 000 
45526.045900 1 16777217x Rx d 8 019 000 000 000 000 000 000 000 
45531.063500 1 0514 Rx d 8 020 000 000 000 000 000 000 000 
45531.063500 1 0513 Rx d 8 020 000 000 000 000 000 000 000 
45531.063500 1 16777217x Rx d 8 020 000 000 000 000 000 000 000 
45536.183500 1 0514 Rx d 8 021 000 000 000 000 000 000 000 
45536.183500 1 0513 Rx d 8 021 000 000 000 000 000 000 000 
45536.183500 1 16777217x Rx d 8 021 000 000 000 000 000 000 000 
45541.201100 1 0514 Rx d 8 022 000 000 000 000 000 000 000 
45541.201100 1 0513 Rx d 8 022 000 000 000 000 000 000 000 
45541.201100 1 16777217x Rx d 8 022 000 000 000 000 000 000 000 
45546.116300 1 0514 Rx d 8 023 000 000 000 000 000 000 000 
45546.116300 1 0513 Rx d 8 023 000 000 000 000 000 000 000 
45546.116300 1 16777217x Rx d 8 023 000 000 000 000 000 000 000 
45551.133900 1 0514 Rx d 8 024 000 000 000 000 000 000 000 
45551.133900 1 0513 Rx d 8 024 000 000 000 000 000 000 000 
45551.133900 1 16777217x Rx d 8 024 000 000 000 000 000 000 000 
45556.049100 1 0514 Rx d 8 025 000 000 000 000 000 000 000 
45556.049100 1 0513 Rx d 8 025 000 000 000 000 000 000 000 
45556.049100 1 16777217x Rx d 8 025 000 000 000 000 000 000 000 
45561.066700 1 0514 Rx d 8 026 000 000 000 000 000 000 000 
45561.066700 1 0513 Rx d 8 026 000 000 000 000 000 000 000 
45561.066700 1 16777217x Rx d 8 026 000 000 000 000 000 000 000 
45566.186700 1 0514 Rx d 8 027 000 000 000 000 000 000 000 
45566.186700 1 0513 Rx d 8 027 000 000 000 000 000 000 000 
45566.186700 1 16777217x Rx d 8 027 000 000 000 000 000 000 000 
45571.204300 1 0514 Rx d 8 028 000 000 000 000 000 000 000 
45571.204300 1 0513 Rx d 8 028 000 000 000 000 000 000 000 
45571.204300 1 16777217x Rx d 8 028 000 000 000 000 000 000 000 
45576.119500 1 0514 Rx d 8 029 000 000 000 000 000 000 000 
45576.119500 1 0513 Rx d 8 029 000 000 000 000 000 000 000 
45576.119500 1 16777217x Rx d 8 029 000 000 000 000 000 000 000 
45581.137100 1 0514 Rx d 8 030 000 000 000 000 000 000 000 
45581.137100 1 0513 Rx d 8 030 000 000 000 000 000 000 000 
45581.137100 1 16777217x Rx d 8 030 000 000 000 000 000 000 000 
45586.154700 1 0514 Rx d 8 031 000 000 000 000 000 000 000 
45586.154700 1 0513 Rx d 8 031 000 000 000 000 000 000 000 
45586.154700 1 16777217x Rx d 8 031 000 000 000 000 000 000 000 
45591.274700 1 0514 Rx d 8 032 000 000 000 000 000 000 000 
45591.274700 1 0513 Rx d 8 032 000 000 000 000 000 000 000 
45591.274700 1 16777217x Rx d 8 032 000 000 000 000 000 000 000 
45596.189900 1 0514 Rx d 8 033 000 000 000 000 000 000 000 
45596.189900 1 0513 Rx d 8 033 000 000 000 000 000 000 000 
45596.189900 1 16777217x Rx d 8 033 000 000 000 000 000 000 000 
45601.207500 1 0514 Rx d 8 034 000 000 000 000 000 000 000 
45601.207500 1 0513 Rx d 8 034 000 000 000 000 000 000 000 
45601.207500 1 16777217x Rx d 8 034 000 000 000 000 000 000 000 
45606.122700 1 0514 Rx d 8 035 000 000 000 000 000 000 000 
45606.122700 1 0513 Rx d 8 035 000 000 000 000 000 000 000 
45606.122700 1 16777217x Rx d 8 035 000 000 000 000 000 000 000 
45611.140300 1 0514 Rx d 8 036 000 000 000 000 000 000 000 
45611.140300 1 0513 Rx d 8 036 000 000 000 000 000 000 000 
45611.140300 1 16777217x Rx d 8 036 000 000 000 000 000 000 000 
45616.157900 1 0514 Rx d 8 037 000 000 000 000 000 000 000 
45616.157900 1 0513 Rx d 8 037 000 000 000 000 000 000 000 
45616.157900 1 16777217x Rx d 8 037 000 000 000 000 000 000 000 
45621.277900 1 0514 Rx d 8 038 000 000 000 000 000 000 000 
45621.277900 1 0513 Rx d 8 038 000 000 000 000 000 000 000 
45621.277900 1 16777217x Rx d 8 038 000 000 000 000 000 000 000 
45626.193100 1 0514 Rx d 8 039 000 000 000 000 000 000 000 
45626.193100 1 0513 Rx d 8 039 000 000 000 000 000 000 000 
45626.193100 1 16777217x Rx d 8 039 000 000 000 000 000 000 000 
45631.210700 1 0514 Rx d 8 040 000 000 000 000 000 000 000 
45631.210700 1 0513 Rx d 8 040 000 000 000 000 000 000 000 
45631.210700 1 16777217x Rx d 8 040 000 000 000 000 000 000 000 
45636.228300 1 0514 Rx d 8 041 000 000 000 000 000 000 000 
45636.228300 1 0513 Rx d 8 041 000 000 000 000 000 000 000 
45636.228300 1 16777217x Rx d 8 041 000 000 000 000 000 000 000 
45641.143500 1 0514 Rx d 8 042 000 000 000 000 000 000 000 
45641.143500 1 0513 Rx d 8 042 000 000 000 000 000 000 000 
45641.143500 1 16777217x Rx d 8 042 000 000 000 000 000 000 000 
45646.161100 1 0514 Rx d 8 043 000 000 000 000 000 000 000 
45646.161100 1 0513 Rx d 8 043 000 000 000 000 000 000 000 
45646.161100 1 16777217x Rx d 8 043 000 000 000 000 000 000 000 
45651.281100 1 0514 Rx d 8 044 000 000 000 000 000 000 000 
45651.281100 1 0513 Rx d 8 044 000 000 000 000 000 000 000 
45651.281100 1 16777217x Rx d 8 044 000 000 000 000 000 000 000 
45656.196300 1 0514 Rx d 8 045 000 000 000 000 000 000 000 
45656.196300 1 0513 Rx d 8 045 000 000 000 000 000 000 000 
45656.196300 1 16777217x Rx d 8 045 000 000 000 000 000 000 000 
45661.213900 1 0514 Rx d 8 046 000 000 000 000 000 000 000 
45661.213900 1 0513 Rx d 8 046 000 000 000 000 000 000 000 
45661.213900 1 16777217x Rx d 8 046 000 000 000 000 000 000 000 
45666.231500 1 0514 Rx d 8 047 000 000 000 000 000 000 000 
45666.231500 1 0513 Rx d 8 047 000 000 000 000 000 000 000 
45666.231500 1 16777217x Rx d 8 047 000 000 000 000 000 000 000 
45671.146700 1 0514 Rx d 8 048 000 000 000 000 000 000 000 
45671.146700 1 0513 Rx d 8 048 000 000 000 000 000 000 000 
45671.146700 1 16777217x Rx d 8 048 000 000 000 000 000 000 000 
45676.266700 1 0514 Rx d 8 049 000 000 000 000 000 000 000 
45676.266700 1 0513 Rx d 8 049 000 000 000 000 000 000 000 
45676.266700 1 16777217x Rx d 8 049 000 000 000 000 000 000 000 
45681.284300 1 0514 Rx d 8 050 000 000 000 000 000 000 000 
45681.284300 1 0513 Rx d 8 050 000 000 000 000 000 000 000 
45681.284300 1 16777217x Rx d 8 050 000 000 000 000 000 000 000 
45686.301900 1 0514 Rx d 8 051 000 000 000 000 000 000 000 
45686.301900 1 0513 Rx d 8 051 000 000 000 000 000 000 000 
45686.301900 1 16777217x Rx d 8 051 000 000 000 000 000 000 000 
45691.217100 1 0514 Rx d 8 052 000 000 000 000 000 000 000 
45691.217100 1 0513 Rx d 8 052 000 000 000 000 000 000 000 
45691.217100 1 16777217x Rx d 8 052 000 000 000 000 000 000 000 
45696.234700 1 0514 Rx d 8 053 000 000 000 000 000 000 000 
45696.234700 1 0513 Rx d 8 053 000 000 000 000 000 000 000 
45696.234700 1 16777217x Rx d 8 053 000 000 000 000 000 000 000 
45701.149900 1 0514 Rx d 8 054 000 000 000 000 000 000 000 
45701.149900 1 0513 Rx d 8 054 000 000 000 000 000 000 000 
45701.149900 1 16777217x Rx d 8 054 000 000 000 000 000 000 000 
45706.269900 1 0514 Rx d 8 055 000 000 000 000 000 000 000 
45706.269900 1 0513 Rx d 8 055 000 000 000 000 000 000 000 
45706.269900 1 16777217x Rx d 8 055 000 000 000 000 000 000 000 
45711.287500 1 0514 Rx d 8 056 000 000 000 000 000 000 000 
45711.287500 1 0513 Rx d 8 056 000 000 000 000 000 000 000 
45711.287500 1 16777217x Rx d 8 056 000 000 000 000 000 000 000 
45716.305100 1 0514 Rx d 8 057 000 000 000 000 000 000 000 
45716.305100 1 0513 Rx d 8 057 000 000 000 000 000 000 000 
45716.305100 1 16777217x Rx d 8 057 000 000 000 000 000 000 000 
45721.220300 1 0514 Rx d 8 058 000 000 000 000 000 000 000 
45721.220300 1 0513 Rx d 8 058 000 000 000 000 000 000 000 
45721.220300 1 16777217x Rx d 8 058 000 000 000 000 000 000 000 
45726.237900 1 0514 Rx d 8 059 000 000 000 000 000 000 000 
45726.237900 1 0513 Rx d 8 059 000 000 000 000 000 000 000 
45726.237900 1 16777217x Rx d 8 059 000 000 000 000 000 000 000 
45731.255500 1 0514 Rx d 8 060 000 000 000 000 000 000 000 
45731.255500 1 0513 Rx d 8 060 000 000 000 000 000 000 000 
45731.357900 1 16777217x Rx d 8 060 000 000 000 000 000 000 000 
45736.273100 1 0514 Rx d 8 061 000 000 000 000 000 000 000 
45736.273100 1 0513 Rx d 8 061 000 000 000 000 000 000 000 
45736.273100 1 16777217x Rx d 8 061 000 000 000 000 000 000 000 
45741.290700 1 0514 Rx d 8 062 000 000 000 000 000 000 000 
45741.290700 1 0513 Rx d 8 062 000 000 000 000 000 000 000 
45741.290700 1 16777217x Rx d 8 062 000 000 000 000 000 000 000 
45746.308300 1 0514 Rx d 8 063 000 000 000 000 000 000 000 
45746.308300 1 0513 Rx d 8 063 000 000 000 000 000 000 000 
45746.308300 1 16777217x Rx d 8 063 000 000 000 000 000 000 000 
45751.223500 1 0514 Rx d 8 064 000 000 000 000 000 000 000 
45751.223500 1 0513 Rx d 8 064 000 000 000 000 000 000 000 
45751.223500 1 16777217x Rx d 8 064 000 000 000 000 000 000 000 
45756.241100 1 0514 Rx d 8 065 000 000 000 000 000 000 000 
45756.241100 1 0513 Rx d 8 065 000 000 000 000 000 000 000 
45756.241100 1 16777217x Rx d 8 065 000 000 000 000 000 000 000 
45761.361100 1 0514 Rx d 8 066 000 000 000 000 000 000 000 
45761.361100 1 0513 Rx d 8 066 000 000 000 000 000 000 000 
45761.361100 1 16777217x Rx d 8 066 000 000 000 000 000 000 000 
45766.378700 1 0514 Rx d 8 067 000 000 000 000 000 000 000 
45766.378700 1 0513 Rx d 8 067 000 000 000 000 000 000 000 
45766.378700 1 16777217x Rx d 8 067 000 000 000 000 000 000 000 
45771.293900 1 0514 Rx d 8 068 000 000 000 000 000 000 000 
45771.293900 1 0513 Rx d 8 068 000 000 000 000 000 000 000 
45771.293900 1 16777217x Rx d 8 068 000 000 000 000 000 000 000 
45776.311500 1 0514 Rx d 8 069 000 000 000 000 000 000 000 
45776.311500 1 0513 Rx d 8 069 000 000 000 000 000 000 000 
45776.311500 1 16777217x Rx d 8 069 000 000 000 000 000 000 000 
45781.329100 1 0514 Rx d 8 070 000 000 000 000 000 000 000 
45781.329100 1 0513 Rx d 8 070 000 000 000 000 000 000 000 
45781.329100 1 16777217x Rx d 8 070 000 000 000 000 000 000 000 
45786.244300 1 0514 Rx d 8 071 000 000 000 000 000 000 000 
45786.244300 1 0513 Rx d 8 071 000 000 000 000 000 000 000 
45786.244300 1 16777217x Rx d 8 071 000 000 000 000 000 000 000 
45791.364300 1 0514 Rx d 8 072 000 000 000 000 000 000 000 
45791.364300 1 0513 Rx d 8 072 000 000 000 000 000 000 000 
45791.364300 1 16777217x Rx d 8 072 000 000 000 000 000 000 000 
45796.381900 1 0514 Rx d 8 073 000 000 000 000 000 000 000 
45796.381900 1 0513 Rx d 8 073 000 000 000 000 000 000 000 
45796.381900 1 16777217x Rx d 8 073 000 000 000 000 000 000 000 
45801.297100 1 0514 Rx d 8 074 000 000 000 000 000 000 000 
45801.297100 1 0513 Rx d 8 074 000 000 000 000 000 000 000 
45801.297100 1 16777217x Rx d 8 074 000 000 000 000 000 000 000 
45806.314700 1 0514 Rx d 8 075 000 000 000 000 000 000 000 
45806.314700 1 0513 Rx d 8 075 000 000 000 000 000 000 000 
45806.314700 1 16777217x Rx d 8 075 000 000 000 000 000 000 000 
45811.332300 1 0514 Rx d 8 076 000 000 000 000 000 000 000 
45811.332300 1 0513 Rx d 8 076 000 000 000 000 000 000 000 
45811.332300 1 16777217x Rx d 8 076 000 000 000 000 000 000 000 
45816.247500 1 0514 Rx d 8 077 000 000 000 000 000 000 000 
45816.247500 1 0513 Rx d 8 077 000 000 000 000 000 000 000 
45816.247500 1 16777217x Rx d 8 077 000 000 000 000 000 000 000 
45821.367500 1 0514 Rx d 8 078 000 000 000 000 000 000 000 
45821.367500 1 0513 Rx d 8 078 000 000 000 000 000 000 000 
45821.367500 1 16777217x Rx d 8 078 000 000 000 000 000 000 000 
45826.385100 1 0514 Rx d 8 079 000 000 000 000 000 000 000 
45826.385100 1 0513 Rx d 8 079 000 000 000 000 000 000 000 
45826.385100 1 16777217x Rx d 8 079 000 000 000 000 000 000 000 
45831.300300 1 0514 Rx d 8 080 000 000 000 000 000 000 000 
45831.300300 1 0513 Rx d 8 080 000 000 000 000 000 000 000 
45831.300300 1 16777217x Rx d 8 080 000 000 000 000 000 000 000 
45836.317900 1 0514 Rx d 8 081 000 000 000 000 000 000 000 
45836.317900 1 0513 Rx d 8 081 000 000 000 000 000 000 000 
45836.317900 1 16777217x Rx d 8 081 000 000 000 000 000 000 000 
45841.335500 1 0514 Rx d 8 082 000 000 000 000 000 000 000 
45841.335500 1 0513 Rx d 8 082 000 000 000 000 000 000 000 
45841.335500 1 16777217x Rx d 8 082 000 000 000 000 000 000 000 
45846.455500 1 0514 Rx d 8 083 000 000 000 000 000 000 000 
45846.455500 1 0513 Rx d 8 083 000 000 000 000 000 000 000 
45846.455500 1 16777217x Rx d 8 083 000 000 000 000 000 000 000 
45851.370700 1 0514 Rx d 8 084 000 000 000 000 000 000 000 
45851.370700 1 0513 Rx d 8 084 000 000 000 000 000 000 000 
45851.370700 1 16777217x Rx d 8 084 000 000 000 000 000 000 000 
45856.388300 1 0514 Rx d 8 085 000 000 000 000 000 000 000 
45856.388300 1 0513 Rx d 8 085 000 000 000 000 000 000 000 
45856.388300 1 16777217x Rx d 8 085 000 000 000 000 000 000 000 
45861.405900 1 0514 Rx d 8 086 000 000 000 000 000 000 000 
45861.405900 1 0513 Rx d 8 086 000 000 000 000 000 000 000 
45861.405900 1 16777217x Rx d 8 086 000 000 000 000 000 000 000 
45866.321100 1 0514 Rx d 8 087 000 000 000 000 000 000 000 
45866.321100 1 0513 Rx d 8 087 000 000 000 000 000 000 000 
45866.321100 1 16777217x Rx d 8 087 000 000 000 000 000 000 000 
45871.338700 1 0514 Rx d 8 088 000 000 000 000 000 000 000 
45871.338700 1 0513 Rx d 8 088 000 000 000 000 000 000 000 
45871.338700 1 16777217x Rx d 8 088 000 000 000 000 000 000 000 
45876.458700 1 0514 Rx d 8 089 000 000 000 000 000 000 000 
45876.458700 1 0513 Rx d 8 089 000 000 000 000 000 000 000 
45876.458700 1 16777217x Rx d 8 089 000 000 000 000 000 000 000 
45881.373900 1 0514 Rx d 8 090 000 000 000 000 000 000 000 
45881.373900 1 0513 Rx d 8 090 000 000 000 000 000 000 000 
45881.373900 1 16777217x Rx d 8 090 000 000 000 000 000 000 000 
45886.391500 1 0514 Rx d 8 091 000 000 000 000 000 000 000 
45886.391500 1 0513 Rx d 8 091 000 000 000 000 000 000 000 
45886.391500 1 16777217x Rx d 8 091 000 000 000 000 000 000 000 
45891.409100 1 0514 Rx d 8 092 000 000 000 000 000 000 000 
45891.409100 1 0513 Rx d 8 092 000 000 000 000 000 000 000 
45891.409100 1 16777217x Rx d 8 092 000 000 000 000 000 000 000 
45896.324300 1 0514 Rx d 8 093 000 000 000 000 000 000 000 
45896.324300 1 0513 Rx d 8 093 000 000 000 000 000 000 000 
45896.324300 1 16777217x Rx d 8 093 000 000 000 000 000 000 000 
45901.444300 1 0514 Rx d 8 094 000 000 000 000 000 000 000 
45901.444300 1 0513 Rx d 8 094 000 000 000 000 000 000 000 
45901.444300 1 16777217x Rx d 8 094 000 000 000 000 000 000 000 
45906.461900 1 0514 Rx d 8 095 000 000 000 000 000 000 000 
45906.461900 1 0513 Rx d 8 095 000 000 000 000 000 000 000 
45906.461900 1 16777217x Rx d 8 095 000 000 000 000 000 000 000 
45911.479500 1 0514 Rx d 8 096 000 000 000 000 000 000 000 
45911.479500 1 0513 Rx d 8 096 000 000 000 000 000 000 000 
45911.479500 1 16777217x Rx d 8 096 000 000 000 000 000 000 000 
45916.394700 1 0514 Rx d 8 097 000 000 000 000 000 000 000 
45916.394700 1 0513 Rx d 8 097 000 000 000 000 000 000 000 
45916.394700 1 16777217x Rx d 8 097 000 000 000 000 000 000 000 
45921.412300 1 0514 Rx d 8 098 000 000 000 000 000 000 000 
45921.412300 1 0513 Rx d 8 098 000 000 000 000 000 000 000 
45921.412300 1 16777217x Rx d 8 098 000 000 000 000 000 000 000 
45926.327500 1 0514 Rx d 8 099 000 000 000 000 000 000 000 
45926.327500 1 0513 Rx d 8 099 000 000 000 000 000 000 000 
45926.327500 1 16777217x Rx d 8 099 000 000 000 000 000 000 000 
45931.447500 1 0514 Rx d 8 100 000 000 000 000 000 000 000 
45931.447500 1 0513 Rx d 8 100 000 000 000 000 000 000 000 
45931.447500 1 16777217x Rx d 8 100 000 000 000 000 000 000 000 
45936.465100 1 0514 Rx d 8 101 000 000 000 000 000 000 000 
45936.465100 1 0513 Rx d 8 101 000 000 000 000 000 000 000 
45936.465100 1 16777217x Rx d 8 101 000 000 000 000 000 000 000 
45941.482700 1 0514 Rx d 8 102 000 000 000 000 000 000 000 
45941.482700 1 0513 Rx d 8 102 000 000 000 000 000 000 000 
45941.482700 1 16777217x Rx d 8 102 000 000 000 000 000 000 000 
45946.397900 1 0514 Rx d 8 103 000 000 000 000 000 000 000 
45946.397900 1 0513 Rx d 8 103 000 000 000 000 000 000 000 
45946.397900 1 16777217x Rx d 8 103 000 000 000 000 000 000 000 
45951.415500 1 0514 Rx d 8 104 000 000 000 000 000 000 000 
45951.415500 1 0513 Rx d 8 104 000 000 000 000 000 000 000 
45951.415500 1 16777217x Rx d 8 104 000 000 000 000 000 000 000 
45956.433100 1 0514 Rx d 8 105 000 000 000 000 000 000 000 
45956.433100 1 0513 Rx d 8 105 000 000 000 000 000 000 000 
45956.433100 1 16777217x Rx d 8 105 000 000 000 000 000 000 000 
45961.553100 1 0514 Rx d 8 106 000 000 000 000 000 000 000 
45961.553100 1 0513 Rx d 8 106 000 000 000 000 000 000 000 
45961.553100 1 16777217x Rx d 8 106 000 000 000 000 000 000 000 
45966.468300 1 0514 Rx d 8 107 000 000 000 000 000 000 000 
45966.468300 1 0513 Rx d 8 107 000 000 000 000 000 000 000 
45966.468300 1 16777217x Rx d 8 107 000 000 000 000 000 000 000 
45971.485900 1 0514 Rx d 8 108 000 000 000 000 000 000 000 
45971.485900 1 0513 Rx d 8 108 000 000 000 000 000 000 000 
45971.485900 1 16777217x Rx d 8 108 000 000 000 000 000 000 000 
45976.401100 1 0514 Rx d 8 109 000 000 000 000 000 000 000 
45976.401100 1 0513 Rx d 8 109 000 000 000 000 000 000 000 
45976.401100 1 16777217x Rx d 8 109 000 000 000 000 000 000 000 
45981.418700 1 0514 Rx d 8 110 000 000 000 000 000 000 000 
45981.418700 1 0513 Rx d 8 110 000 000 000 000 000 000 000 
45981.418700 1 16777217x Rx d 8 110 000 000 000 000 000 000 000 
45986.538700 1 0514 Rx d 8 111 000 000 000 000 000 000 000 
45986.538700 1 0513 Rx d 8 111 000 000 000 000 000 000 000 
45986.538700 1 16777217x Rx d 8 111 000 000 000 000 000 000 000 
45991.556300 1 0514 Rx d 8 112 000 000 000 000 000 000 000 
45991.556300 1 0513 Rx d 8 112 000 000 000 000 000 000 000 
45991.556300 1 16777217x Rx d 8 112 000 000 000 000 000 000 000 
45996.471500 1 0514 Rx d 8 113 000 000 000 000 000 000 000 
45996.471500 1 0513 Rx d 8 113 000 000 000 000 000 000 000 
45996.471500 1 16777217x Rx d 8 113 000 000 000 000 000 000 000 
46001.489100 1 0514 Rx d 8 114 000 000 000 000 000 000 000 
46001.489100 1 0513 Rx d 8 114 000 000 000 000 000 000 000 
46001.489100 1 16777217x Rx d 8 114 000 000 000 000 000 000 000 
46006.506700 1 0514 Rx d 8 115 000 000 000 000 000 000 000 
46006.506700 1 0513 Rx d 8 115 000 000 000 000 000 000 000 
46006.506700 1 16777217x Rx d 8 115 000 000 000 000 000 000 000 
46011.421900 1 0514 Rx d 8 116 000 000 000 000 000 000 000 
46011.421900 1 0513 Rx d 8 116 000 000 000 000 000 000 000 
46011.421900 1 16777217x Rx d 8 116 000 000 000 000 000 000 000 
46016.541900 1 0514 Rx d 8 117 000 000 000 000 000 000 000 
46016.541900 1 0513 Rx d 8 117 000 000 000 000 000 000 000 
46016.541900 1 16777217x Rx d 8 117 000 000 000 000 000 000 000 
46021.559500 1 0514 Rx d 8 118 000 000 000 000 000 000 000 
46021.559500 1 0513 Rx d 8 118 000 000 000 000 000 000 000 
46021.559500 1 16777217x Rx d 8 118 000 000 000 000 000 000 000 
46026.474700 1 0514 Rx d 8 119 000 000 000 000 000 000 000 
46026.474700 1 0513 Rx d 8 119 000 000 000 000 000 000 000 
46026.474700 1 16777217x Rx d 8 119 000 000 000 000 000 000 000 
46031.492300 1 0514 Rx d 8 120 000 000 000 000 000 000 000 
46031.492300 1 0513 Rx d 8 120 000 000 000 000 000 000 000 
46031.492300 1 16777217x Rx d 8 120 000 000 000 000 000 000 000 
46036.509900 1 0514 Rx d 8 121 000 000 000 000 000 000 000 
46036.509900 1 0513 Rx d 8 121 000 000 000 000 000 000 000 
46036.509900 1 16777217x Rx d 8 121 000 000 000 000 000 000 000 
46041.629900 1 0514 Rx d 8 122 000 000 000 000 000 000 000 
46041.629900 1 0513 Rx d 8 122 000 000 000 000 000 000 000 
46041.629900 1 16777217x Rx d 8 122 000 000 000 000 000 000 000 
46046.545100 1 0514 Rx d 8 123 000 000 000 000 000 000 000 
46046.545100 1 0513 Rx d 8 123 000 000 000 000 000 000 000 
46046.545100 1 16777217x Rx d 8 123 000 000 000 000 000 000 000 
46051.562700 1 0514 Rx d 8 124 000 000 000 000 000 000 000 
46051.562700 1 0513 Rx d 8 124 000 000 000 000 000 000 000 
46051.562700 1 16777217x Rx d 8 124 000 000 000 000 000 000 000 
46056.580300 1 0514 Rx d 8 125 000 000 000 000 000 000 000 
46056.580300 1 0513 Rx d 8 125 000 000 000 000 000 000 000 
46056.580300 1 16777217x Rx d 8 125 000 000 000 000 000 000 000 
46061.495500 1 0514 Rx d 8 126 000 000 000 000 000 000 000 
46061.495500 1 0513 Rx d 8 126 000 000 000 000 000 000 000 
46061.495500 1 16777217x Rx d 8 126 000 000 000 000 000 000 000 
46066.513100 1 0514 Rx d 8 127 000 000 000 000 000 000 000 
46066.513100 1 0513 Rx d 8 127 000 000 000 000 000 000 000 
46066.513100 1 16777217x Rx d 8 127 000 000 000 000 000 000 000 
46071.633100 1 0514 Rx d 8 128 000 000 000 000 000 000 000 
46071.633100 1 0513 Rx d 8 128 000 000 000 000 000 000 000 
46071.633100 1 16777217x Rx d 8 128 000 000 000 000 000 000 000 
46076.548300 1 0514 Rx d 8 129 000 000 000 000 000 000 000 
46076.548300 1 0513 Rx d 8 129 000 000 000 000 000 000 000 
46076.548300 1 16777217x Rx d 8 129 000 000 000 000 000 000 000 
46081.565900 1 0514 Rx d 8 130 000 000 000 000 000 000 000 
46081.565900 1 0513 Rx d 8 130 000 000 000 000 000 000 000 
46081.565900 1 16777217x Rx d 8 130 000 000 000 000 000 000 000 
46086.583500 1 0514 Rx d 8 131 000 000 000 000 000 000 000 
46086.583500 1 0513 Rx d 8 131 000 000 000 000 000 000 000 
46086.583500 1 16777217x Rx d 8 131 000 000 000 000 000 000 000 
46091.498700 1 0514 Rx d 8 132 000 000 000 000 000 000 000 
46091.498700 1 0513 Rx d 8 132 000 000 000 000 000 000 000 
46091.498700 1 16777217x Rx d 8 132 000 000 000 000 000 000 000 
46096.516300 1 0514 Rx d 8 133 000 000 000 000 000 000 000 
46096.516300 1 0513 Rx d 8 133 000 000 000 000 000 000 000 
46096.516300 1 16777217x Rx d 8 133 000 000 000 000 000 000 000 
46101.636300 1 0514 Rx d 8 134 000 000 000 000 000 000 000 
46101.636300 1 0513 Rx d 8 134 000 000 000 000 000 000 000 
46101.636300 1 16777217x Rx d 8 134 000 000 000 000 000 000 000 
46106.551500 1 0514 Rx d 8 135 000 000 000 000 000 000 000 
46106.551500 1 0513 Rx d 8 135 000 000 000 000 000 000 000 
46106.551500 1 16777217x Rx d 8 135 000 000 000 000 000 000 000 
46111.569100 1 0514 Rx d 8 136 000 000 000 000 000 000 000 
46111.569100 1 0513 Rx d 8 136 000 000 000 000 000 000 000 
46111.569100 1 16777217x Rx d 8 136 000 000 000 000 000 000 000 
46116.586700 1 0514 Rx d 8 137 000 000 000 000 000 000 000 
46116.586700 1 0513 Rx d 8 137 000 000 000 000 000 000 000 
46116.586700 1 16777217x Rx d 8 137 000 000 000 000 000 000 000 
46121.501900 1 0514 Rx d 8 138 000 000 000 000 000 000 000 
46121.501900 1 0513 Rx d 8 138 000 000 000 000 000 000 000 
46121.501900 1 16777217x Rx d 8 138 000 000 000 000 000 000 000 
46126.621900 1 0514 Rx d 8 139 000 000 000 000 000 000 000 
46126.621900 1 0513 Rx d 8 139 000 000 000 000 000 000 000 
46126.621900 1 16777217x Rx d 8 139 000 000 000 000 000 000 000 
46131.639500 1 0514 Rx d 8 140 000 000 000 000 000 000 000 
46131.639500 1 0513 Rx d 8 140 000 000 000 000 000 000 000 
46131.639500 1 16777217x Rx d 8 140 000 000 000 000 000 000 000 
46136.657100 1 0514 Rx d 8 141 000 000 000 000 000 000 000 
46136.657100 1 0513 Rx d 8 141 000 000 000 000 000 000 000 
46136.657100 1 16777217x Rx d 8 141 000 000 000 000 000 000 000 
46141.572300 1 0514 Rx d 8 142 000 000 000 000 000 000 000 
46141.572300 1 0513 Rx d 8 142 000 000 000 000 000 000 000 
46141.572300 1 16777217x Rx d 8 142 000 000 000 000 000 000 000 
46146.589900 1 0514 Rx d 8 143 000 000 000 000 000 000 000 
46146.589900 1 0513 Rx d 8 143 000 000 000 000 000 000 000 
46146.589900 1 16777217x Rx d 8 143 000 000 000 000 000 000 000 
46151.607500 1 0514 Rx d 8 144 000 000 000 000 000 000 000 
46151.607500 1 0513 Rx d 8 144 000 000 000 000 000 000 000 
46151.607500 1 16777217x Rx d 8 144 000 000 000 000 000 000 000 
46156.625100 1 0514 Rx d 8 145 000 000 000 000 000 000 000 
46156.625100 1 0513 Rx d 8 145 000 000 000 000 000 000 000 
46156.625100 1 16777217x Rx d 8 145 000 000 000 000 000 000 000 
46161.642700 1 0514 Rx d 8 146 000 000 000 000 000 000 000 
46161.642700 1 0513 Rx d 8 146 000 000 000 000 000 000 000 
46161.642700 1 16777217x Rx d 8 146 000 000 000 000 000 000 000 
46166.660300 1 0514 Rx d 8 147 000 000 000 000 000 000 000 
46166.660300 1 0513 Rx d 8 147 000 000 000 000 000 000 000 
46166.660300 1 16777217x Rx d 8 147 000 000 000 000 000 000 000 
46171.575500 1 0514 Rx d 8 148 000 000 000 000 000 000 000 
46171.575500 1 0513 Rx d 8 148 000 000 000 000 000 000 000 
46171.575500 1 16777217x Rx d 8 148 000 000 000 000 000 000 000 
46176.593100 1 0514 Rx d 8 149 000 000 000 000 000 000 000 
46176.593100 1 0513 Rx d 8 149 000 000 000 000 000 000 000 
46176.593100 1 16777217x Rx d 8 149 000 000 000 000 000 000 000 
46181.610700 1 0514 Rx d 8 150 000 000 000 000 000 000 000 
46181.610700 1 0513 Rx d 8 150 000 000 000 000 000 000 000 
46181.610700 1 16777217x Rx d 8 150 000 000 000 000 000 000 000 
46186.730700 1 0514 Rx d 8 151 000 000 000 000 000 000 000 
46186.730700 1 0513 Rx d 8 151 000 000 000 000 000 000 000 
46186.730700 1 16777217x Rx d 8 151 000 000 000 000 000 000 000 
46191.645900 1 0514 Rx d 8 152 000 000 000 000 000 000 000 
46191.645900 1 0513 Rx d 8 152 000 000 000 000 000 000 000 
46191.645900 1 16777217x Rx d 8 152 000 000 000 000 000 000 000 
46196.663500 1 0514 Rx d 8 153 000 000 000 000 000 000 000 
46196.663500 1 0513 Rx d 8 153 000 000 000 000 000 000 000 
46196.663500 1 16777217x Rx d 8 153 000 000 000 000 000 000 000 
46201.578700 1 0514 Rx d 8 154 000 000 000 000 000 000 000 
46201.578700 1 0513 Rx d 8 154 000 000 000 000 000 000 000 
46201.578700 1 16777217x Rx d 8 154 000 000 000 000 000 000 000 
46206.596300 1 0514 Rx d 8 155 000 000 000 000 000 000 000 
46206.596300 1 0513 Rx d 8 155 000 000 000 000 000 000 000 
46206.596300 1 16777217x Rx d 8 155 000 000 000 000 000 000 000 
46211.613900 1 0514 Rx d 8 156 000 000 000 000 000 000 000 
46211.613900 1 0513 Rx d 8 156 000 000 000 000 000 000 000 
46211.613900 1 16777217x Rx d 8 156 000 000 000 000 000 000 000 
46216.733900 1 0514 Rx d 8 157 000 000 000 000 000 000 000 
46216.733900 1 0513 Rx d 8 157 000 000 000 000 000 000 000 
46216.733900 1 16777217x Rx d 8 157 000 000 000 000 000 000 000 
46221.649100 1 0514 Rx d 8 158 000 000 000 000 000 000 000 
46221.649100 1 0513 Rx d 8 158 000 000 000 000 000 000 000 
46221.649100 1 16777217x Rx d 8 158 000 000 000 000 000 000 000 
46226.666700 1 0514 Rx d 8 159 000 000 000 000 000 000 000 
46226.666700 1 0513 Rx d 8 159 000 000 000 000 000 000 000 
46226.666700 1 16777217x Rx d 8 159 000 000 000 000 000 000 000 
46231.684300 1 0514 Rx d 8 160 000 000 000 000 000 000 000 
46231.684300 1 0513 Rx d 8 160 000 000 000 000 000 000 000 
46231.684300 1 16777217x Rx d 8 160 000 000 000 000 000 000 000 
46236.599500 1 0514 Rx d 8 161 000 000 000 000 000 000 000 
46236.599500 1 0513 Rx d 8 161 000 000 000 000 000 000 000 
46236.599500 1 16777217x Rx d 8 161 000 000 000 000 000 000 000 
46241.719500 1 0514 Rx d 8 162 000 000 000 000 000 000 000 
46241.719500 1 0513 Rx d 8 162 000 000 000 000 000 000 000 
46241.719500 1 16777217x Rx d 8 162 000 000 000 000 000 000 000 
46246.737100 1 0514 Rx d 8 163 000 000 000 000 000 000 000 
46246.737100 1 0513 Rx d 8 163 000 000 000 000 000 000 000 
46246.737100 1 16777217x Rx d 8 163 000 000 000 000 000 000 000 
46251.652300 1 0514 Rx d 8 164 000 000 000 000 000 000 000 
46251.652300 1 0513 Rx d 8 164 000 000 000 000 000 000 000 
46251.652300 1 16777217x Rx d 8 164 000 000 000 000 000 000 000 
46256.669900 1 0514 Rx d 8 165 000 000 000 000 000 000 000 
46256.669900 1 0513 Rx d 8 165 000 000 000 000 000 000 000 
46256.669900 1 16777217x Rx d 8 165 000 000 000 000 000 000 000 
46261.687500 1 0514 Rx d 8 166 000 000 000 000 000 000 000 
46261.687500 1 0513 Rx d 8 166 000 000 000 000 000 000 000 
46261.687500 1 16777217x Rx d 8 166 000 000 000 000 000 000 000 
46266.602700 1 0514 Rx d 8 167 000 000 000 000 000 000 000 
46266.602700 1 0513 Rx d 8 167 000 000 000 000 000 000 000 
46266.602700 1 16777217x Rx d 8 167 000 000 000 000 000 000 000 
46271.722700 1 0514 Rx d 8 168 000 000 000 000 000 000 000 
46271.722700 1 0513 Rx d 8 168 000 000 000 000 000 000 000 
46271.722700 1 16777217x Rx d 8 168 000 000 000 000 000 000 000 
46276.740300 1 0514 Rx d 8 169 000 000 000 000 000 000 000 
46276.740300 1 0513 Rx d 8 169 000 000 000 000 000 000 000 
46276.740300 1 16777217x Rx d 8 169 000 000 000 000 000 000 000 
46281.757900 1 0514 Rx d 8 170 000 000 000 000 000 000 000 
46281.757900 1 0513 Rx d 8 170 000 000 000 000 000 000 000 
46281.757900 1 16777217x Rx d 8 170 000 000 000 000 000 000 000 
46286.673100 1 0514 Rx d 8 171 000 000 000 000 000 000 000 
46286.673100 1 0513 Rx d 8 171 000 000 000 000 000 000 000 
46286.673100 1 16777217x Rx d 8 171 000 000 000 000 000 000 000 
46291.690700 1 0514 Rx d 8 172 000 000 000 000 000 000 000 
46291.690700 1 0513 Rx d 8 172 000 000 000 000 000 000 000 
46291.690700 1 16777217x Rx d 8 172 000 000 000 000 000 000 000 
46296.605900 1 0514 Rx d 8 173 000 000 000 000 000 000 000 
46296.605900 1 0513 Rx d 8 173 000 000 000 000 000 000 000 
46296.605900 1 16777217x Rx d 8 173 000 000 000 000 000 000 000 
46301.725900 1 0514 Rx d 8 174 000 000 000 000 000 000 000 
46301.725900 1 0513 Rx d 8 174 000 000 000 000 000 000 000 
46301.725900 1 16777217x Rx d 8 174 000 000 000 000 000 000 000 
46306.743500 1 0514 Rx d 8 175 000 000 000 000 000 000 000 
46306.743500 1 0513 Rx d 8 175 000 000 000 000 000 000 000 
46306.743500 1 16777217x Rx d 8 175 000 000 000 000 000 000 000 
46311.761100 1 0514 Rx d 8 176 000 000 000 000 000 000 000 
46311.761100 1 0513 Rx d 8 176 000 000 000 000 000 000 000 
46311.761100 1 16777217x Rx d 8 176 000 000 000 000 000 000 000 
46316.676300 1 0514 Rx d 8 177 000 000 000 000 000 000 000 
46316.676300 1 0513 Rx d 8 177 000 000 000 000 000 000 000 
46316.676300 1 16777217x Rx d 8 177 000 000 000 000 000 000 000 
46321.693900 1 0514 Rx d 8 178 000 000 000 000 000 000 000 
46321.693900 1 0513 Rx d 8 178 000 000 000 000 000 000 000 
46321.693900 1 16777217x Rx d 8 178 000 000 000 000 000 000 000 
46326.813900 1 0514 Rx d 8 179 000 000 000 000 000 000 000 
46326.813900 1 0513 Rx d 8 179 000 000 000 000 000 000 000 
46326.813900 1 16777217x Rx d 8 179 000 000 000 000 000 000 000 
46331.831500 1 0514 Rx d 8 180 000 000 000 000 000 000 000 
46331.831500 1 0513 Rx d 8 180 000 000 000 000 000 000 000 
46331.831500 1 16777217x Rx d 8 180 000 000 000 000 000 000 000 
46336.746700 1 0514 Rx d 8 181 000 000 000 000 000 000 000 
46336.746700 1 0513 Rx d 8 181 000 000 000 000 000 000 000 
46336.746700 1 16777217x Rx d 8 181 000 000 000 000 000 000 000 
46341.764300 1 0514 Rx d 8 182 000 000 000 000 000 000 000 
46341.764300 1 0513 Rx d 8 182 000 000 000 000 000 000 000 
46341.764300 1 16777217x Rx d 8 182 000 000 000 000 000 000 000 
End TriggerBlock

