date Wed Jun 02 06:59:55 AM 2021
base hex timestamps absolute
no internal events logged
// version 8.5.0
   0.000000 1  1868FFF9x       Rx   d 8 FF F0 FF FF FF FF FF FF  Length = 284000 BitCount = 146 ID = 409534457x
   4.873183 1  1000001x        Rx   d 8 01 00 1E 00 00 00 00 00  Length = 288000 BitCount = 148 ID = 16777217x
   9.874950 1  1000001x        Rx   d 8 02 00 1E 00 00 00 00 00  Length = 288000 BitCount = 148 ID = 16777217x
   9.999920 1  1868FFF9x       Rx   d 8 FF F0 FF FF FF FF FF FF  Length = 284000 BitCount = 146 ID = 409534457x
  14.877592 1  1000001x        Rx   d 8 03 00 1E 00 00 00 00 00  Length = 288000 BitCount = 148 ID = 16777217x
  19.879044 1  1000001x        Rx   d 8 04 00 1E 00 00 00 00 00  Length = 286000 BitCount = 147 ID = 16777217x
  20.000065 1  1868FFF9x       Rx   d 8 FF F0 FF FF FF FF FF FF  Length = 284000 BitCount = 146 ID = 409534457x
  24.880511 1  1000001x        Rx   d 8 05 00 1E 00 00 00 00 00  Length = 286000 BitCount = 147 ID = 16777217x
  29.882463 1  1000001x        Rx   d 8 06 00 1E 00 00 00 00 00  Length = 286000 BitCount = 147 ID = 16777217x
  30.000014 1  1868FFF9x       Rx   d 8 FF F0 FF FF FF FF FF FF  Length = 284000 BitCount = 146 ID = 409534457x
  34.883941 1  1000001x        Rx   d 8 07 00 1E 00 00 00 00 00  Length = 286000 BitCount = 147 ID = 16777217x
  39.886103 1  1000001x        Rx   d 8 08 00 1E 00 00 00 00 00  Length = 288000 BitCount = 148 ID = 16777217x
  39.999854 1  1868FFF9x       Rx   d 8 FF F0 FF FF FF FF FF FF  Length = 284000 BitCount = 146 ID = 409534457x
  44.888042 1  1000001x        Rx   d 8 09 00 1E 00 00 00 00 00  Length = 288000 BitCount = 148 ID = 16777217x
  49.889930 1  1000001x        Rx   d 8 0A 00 1E 00 00 00 00 00  Length = 286000 BitCount = 147 ID = 16777217x
  50.000065 1  1868FFF9x       Rx   d 8 FF F0 FF FF FF FF FF FF  Length = 284000 BitCount = 146 ID = 409534457x
  54.891486 1  1000001x        Rx   d 8 0B 00 1E 00 00 00 00 00  Length = 288000 BitCount = 148 ID = 16777217x
  59.893205 1  1000001x        Rx   d 8 0C 00 1E 00 00 00 00 00  Length = 286000 BitCount = 147 ID = 16777217x
  60.000195 1  1868FFF9x       Rx   d 8 FF F0 FF FF FF FF FF FF  Length = 284000 BitCount = 146 ID = 409534457x
  64.894980 1  1000001x        Rx   d 8 0D 00 1E 00 00 00 00 00  Length = 286000 BitCount = 147 ID = 16777217x
  69.896487 1  1000001x        Rx   d 8 0E 00 1E 00 00 00 00 00  Length = 286000 BitCount = 147 ID = 16777217x
  70.000351 1  1868FFF9x       Rx   d 8 FF F0 FF FF FF FF FF FF  Length = 284000 BitCount = 146 ID = 409534457x
  74.897817 1  1000001x        Rx   d 8 0F 00 1E 00 00 00 00 00  Length = 286000 BitCount = 147 ID = 16777217x
  79.899664 1  1000001x        Rx   d 8 10 00 1E 00 00 00 00 00  Length = 290000 BitCount = 149 ID = 16777217x
  80.000565 1  1868FFF9x       Rx   d 8 FF F0 FF FF FF FF FF FF  Length = 284000 BitCount = 146 ID = 409534457x
  84.901844 1  1000001x        Rx   d 8 11 00 1E 00 00 00 00 00  Length = 286000 BitCount = 147 ID = 16777217x
  89.903824 1  1000001x        Rx   d 8 12 00 1E 00 00 00 00 00  Length = 286000 BitCount = 147 ID = 16777217x
  90.000735 1  1868FFF9x       Rx   d 8 FF F0 FF FF FF FF FF FF  Length = 284000 BitCount = 146 ID = 409534457x
  94.905952 1  1000001x        Rx   d 8 13 00 1E 00 00 00 00 00  Length = 288000 BitCount = 148 ID = 16777217x
  99.907651 1  1000001x        Rx   d 8 14 00 1E 00 00 00 00 00  Length = 286000 BitCount = 147 ID = 16777217x
 100.000919 1  1868FFF9x       Rx   d 8 FF F0 FF FF FF FF FF FF  Length = 284000 BitCount = 146 ID = 409534457x
 104.909404 1  1000001x        Rx   d 8 15 00 1E 00 00 00 00 00  Length = 290000 BitCount = 149 ID = 16777217x
 109.911353 1  1000001x        Rx   d 8 16 00 1E 00 00 00 00 00  Length = 288000 BitCount = 148 ID = 16777217x
 110.001206 1  1868FFF9x       Rx   d 8 FF F0 FF FF FF FF FF FF  Length = 284000 BitCount = 146 ID = 409534457x
 114.913111 1  1000001x        Rx   d 8 17 00 1E 00 00 00 00 00  Length = 288000 BitCount = 148 ID = 16777217x
 119.914370 1  1000001x        Rx   d 8 18 00 1E 00 00 00 00 00  Length = 286000 BitCount = 147 ID = 16777217x
 120.001478 1  1868FFF9x       Rx   d 8 FF F0 FF FF FF FF FF FF  Length = 284000 BitCount = 146 ID = 409534457x
 124.916059 1  1000001x        Rx   d 8 19 00 1E 00 00 00 00 00  Length = 286000 BitCount = 147 ID = 16777217x
 129.917561 1  1000001x        Rx   d 8 1A 00 1E 00 00 00 00 00  Length = 288000 BitCount = 148 ID = 16777217x
 130.001681 1  1868FFF9x       Rx   d 8 FF F0 FF FF FF FF FF FF  Length = 284000 BitCount = 146 ID = 409534457x
 134.919340 1  1000001x        Rx   d 8 1B 00 1E 00 00 00 00 00  Length = 286000 BitCount = 147 ID = 16777217x
 139.921497 1  1000001x        Rx   d 8 1C 00 1E 00 00 00 00 00  Length = 288000 BitCount = 148 ID = 16777217x
 140.001905 1  1868FFF9x       Rx   d 8 FF F0 FF FF FF FF FF FF  Length = 284000 BitCount = 146 ID = 409534457x
 144.923143 1  1000001x        Rx   d 8 1D 00 1E 00 00 00 00 00  Length = 286000 BitCount = 147 ID = 16777217x
 149.925079 1  1000001x        Rx   d 8 1E 00 1E 00 00 00 00 00  Length = 288000 BitCount = 148 ID = 16777217x
 150.002079 1  1868FFF9x       Rx   d 8 FF F0 FF FF FF FF FF FF  Length = 284000 BitCount = 146 ID = 409534457x
 154.926503 1  1000001x        Rx   d 8 1F 00 1E 00 00 00 00 00  Length = 288000 BitCount = 148 ID = 16777217x
 159.928215 1  1000001x        Rx   d 8 20 00 1E 00 00 00 00 00  Length = 290000 BitCount = 149 ID = 16777217x
 160.002280 1  1868FFF9x       Rx   d 8 FF F0 FF FF FF FF FF FF  Length = 284000 BitCount = 146 ID = 409534457x
 164.929723 1  1000001x        Rx   d 8 21 00 1E 00 00 00 00 00  Length = 286000 BitCount = 147 ID = 16777217x
 169.931492 1  1000001x        Rx   d 8 22 00 1E 00 00 00 00 00  Length = 286000 BitCount = 147 ID = 16777217x
 170.002549 1  1868FFF9x       Rx   d 8 FF F0 FF FF FF FF FF FF  Length = 284000 BitCount = 146 ID = 409534457x
 174.933417 1  1000001x        Rx   d 8 23 00 1E 00 00 00 00 00  Length = 286000 BitCount = 147 ID = 16777217x
 179.935058 1  1000001x        Rx   d 8 24 00 1E 00 00 00 00 00  Length = 286000 BitCount = 147 ID = 16777217x
 180.002484 1  1868FFF9x       Rx   d 8 FF F0 FF FF FF FF FF FF  Length = 284000 BitCount = 146 ID = 409534457x
 184.936409 1  1000001x        Rx   d 8 25 00 1E 00 00 00 00 00  Length = 288000 BitCount = 148 ID = 16777217x
 189.938003 1  1000001x        Rx   d 8 26 00 1E 00 00 00 00 00  Length = 286000 BitCount = 147 ID = 16777217x
 190.002313 1  1868FFF9x       Rx   d 8 FF F0 FF FF FF FF FF FF  Length = 284000 BitCount = 146 ID = 409534457x
 194.940032 1  1000001x        Rx   d 8 27 00 1E 00 00 00 00 00  Length = 286000 BitCount = 147 ID = 16777217x
 199.941867 1  1000001x        Rx   d 8 28 00 1E 00 00 00 00 00  Length = 288000 BitCount = 148 ID = 16777217x
 200.002163 1  1868FFF9x       Rx   d 8 FF F0 FF FF FF FF FF FF  Length = 284000 BitCount = 146 ID = 409534457x
 204.943230 1  1000001x        Rx   d 8 29 00 1E 00 00 00 00 00  Length = 286000 BitCount = 147 ID = 16777217x
 209.944701 1  1000001x        Rx   d 8 2A 00 1E 00 00 00 00 00  Length = 286000 BitCount = 147 ID = 16777217x
 210.002423 1  1868FFF9x       Rx   d 8 FF F0 FF FF FF FF FF FF  Length = 284000 BitCount = 146 ID = 409534457x
 214.946598 1  1000001x        Rx   d 8 2B 00 1E 00 00 00 00 00  Length = 286000 BitCount = 147 ID = 16777217x
 219.948815 1  1000001x        Rx   d 8 2C 00 1E 00 00 00 00 00  Length = 288000 BitCount = 148 ID = 16777217x
 220.002246 1  1868FFF9x       Rx   d 8 FF F0 FF FF FF FF FF FF  Length = 284000 BitCount = 146 ID = 409534457x
 224.950539 1  1000001x        Rx   d 8 2D 00 1E 00 00 00 00 00  Length = 286000 BitCount = 147 ID = 16777217x
 229.952664 1  1000001x        Rx   d 8 2E 00 1E 00 00 00 00 00  Length = 286000 BitCount = 147 ID = 16777217x
 230.002503 1  1868FFF9x       Rx   d 8 FF F0 FF FF FF FF FF FF  Length = 284000 BitCount = 146 ID = 409534457x
 234.953911 1  1000001x        Rx   d 8 2F 00 1E 00 00 00 00 00  Length = 288000 BitCount = 148 ID = 16777217x
 239.955531 1  1000001x        Rx   d 8 30 00 1E 00 00 00 00 00  Length = 290000 BitCount = 149 ID = 16777217x
 240.002685 1  1868FFF9x       Rx   d 8 FF F0 FF FF FF FF FF FF  Length = 284000 BitCount = 146 ID = 409534457x
 244.957217 1  1000001x        Rx   d 8 31 00 1E 00 00 00 00 00  Length = 286000 BitCount = 147 ID = 16777217x
 249.958945 1  1000001x        Rx   d 8 32 00 1E 00 00 00 00 00  Length = 290000 BitCount = 149 ID = 16777217x
 250.002863 1  1868FFF9x       Rx   d 8 FF F0 FF FF FF FF FF FF  Length = 284000 BitCount = 146 ID = 409534457x
 254.960696 1  1000001x        Rx   d 8 33 00 1E 00 00 00 00 00  Length = 286000 BitCount = 147 ID = 16777217x
 259.962036 1  1000001x        Rx   d 8 34 00 1E 00 00 00 00 00  Length = 290000 BitCount = 149 ID = 16777217x
 260.003040 1  1868FFF9x       Rx   d 8 FF F0 FF FF FF FF FF FF  Length = 284000 BitCount = 146 ID = 409534457x
 264.963536 1  1000001x        Rx   d 8 35 00 1E 00 00 00 00 00  Length = 286000 BitCount = 147 ID = 16777217x
 269.965388 1  1000001x        Rx   d 8 36 00 1E 00 00 00 00 00  Length = 288000 BitCount = 148 ID = 16777217x
 270.003335 1  1868FFF9x       Rx   d 8 FF F0 FF FF FF FF FF FF  Length = 284000 BitCount = 146 ID = 409534457x
 274.966815 1  1000001x        Rx   d 8 37 00 1E 00 00 00 00 00  Length = 286000 BitCount = 147 ID = 16777217x
 279.968331 1  1000001x        Rx   d 8 38 00 1E 00 00 00 00 00  Length = 286000 BitCount = 147 ID = 16777217x
 280.003571 1  1868FFF9x       Rx   d 8 FF F0 FF FF FF FF FF FF  Length = 284000 BitCount = 146 ID = 409534457x
 284.970025 1  1000001x        Rx   d 8 39 00 1E 00 00 00 00 00  Length = 288000 BitCount = 148 ID = 16777217x
 289.972064 1  1000001x        Rx   d 8 3A 00 1E 00 00 00 00 00  Length = 286000 BitCount = 147 ID = 16777217x
 290.003858 1  1868FFF9x       Rx   d 8 FF F0 FF FF FF FF FF FF  Length = 284000 BitCount = 146 ID = 409534457x
 294.973783 1  1000001x        Rx   d 8 3B 00 1E 00 00 00 00 00  Length = 286000 BitCount = 147 ID = 16777217x
 299.975464 1  1000001x        Rx   d 8 3C 00 1E 00 00 00 00 00  Length = 288000 BitCount = 148 ID = 16777217x
 300.004659 1  1868FFF9x       Rx   d 8 FF F0 FF FF FF FF FF FF  Length = 284000 BitCount = 146 ID = 409534457x
 304.977318 1  1000001x        Rx   d 8 3D 00 1E 00 00 00 00 00  Length = 290000 BitCount = 149 ID = 16777217x
 309.979468 1  1000001x        Rx   d 8 3E 00 1E 00 00 00 00 00  Length = 288000 BitCount = 148 ID = 16777217x
 310.004819 1  1868FFF9x       Rx   d 8 FF F0 FF FF FF FF FF FF  Length = 284000 BitCount = 146 ID = 409534457x
 314.981335 1  1000001x        Rx   d 8 3F 00 1E 00 00 00 00 00  Length = 288000 BitCount = 148 ID = 16777217x
 319.983016 1  1000001x        Rx   d 8 40 00 1E 00 00 00 00 00  Length = 286000 BitCount = 147 ID = 16777217x
 320.004970 1  1868FFF9x       Rx   d 8 FF F0 FF FF FF FF FF FF  Length = 284000 BitCount = 146 ID = 409534457x
 324.984264 1  1000001x        Rx   d 8 41 00 1E 00 00 00 00 00  Length = 286000 BitCount = 147 ID = 16777217x
 330.005147 1  1868FFF9x       Rx   d 8 FF F0 FF FF FF FF FF FF  Length = 284000 BitCount = 146 ID = 409534457x
 340.005427 1  1868FFF9x       Rx   d 8 FF F0 FF FF FF FF FF FF  Length = 284000 BitCount = 146 ID = 409534457x
 350.005830 1  1868FFF9x       Rx   d 8 FF F0 FF FF FF FF FF FF  Length = 284000 BitCount = 146 ID = 409534457x
 360.006117 1  1868FFF9x       Rx   d 8 FF F0 FF FF FF FF FF FF  Length = 284000 BitCount = 146 ID = 409534457x
 370.006434 1  1868FFF9x       Rx   d 8 FF F0 FF FF FF FF FF FF  Length = 284000 BitCount = 146 ID = 409534457x
 380.006688 1  1868FFF9x       Rx   d 8 FF F0 FF FF FF FF FF FF  Length = 284000 BitCount = 146 ID = 409534457x
 390.006987 1  1868FFF9x       Rx   d 8 FF F0 FF FF FF FF FF FF  Length = 284000 BitCount = 146 ID = 409534457x
 400.007182 1  1868FFF9x       Rx   d 8 FF F0 FF FF FF FF FF FF  Length = 284000 BitCount = 146 ID = 409534457x
 410.007509 1  1868FFF9x       Rx   d 8 FF F0 FF FF FF FF FF FF  Length = 284000 BitCount = 146 ID = 409534457x
 420.007681 1  1868FFF9x       Rx   d 8 FF F0 FF FF FF FF FF FF  Length = 284000 BitCount = 146 ID = 409534457x
 430.007959 1  1868FFF9x       Rx   d 8 FF F0 FF FF FF FF FF FF  Length = 284000 BitCount = 146 ID = 409534457x
 440.008253 1  1868FFF9x       Rx   d 8 FF F0 FF FF FF FF FF FF  Length = 284000 BitCount = 146 ID = 409534457x
 450.008517 1  1868FFF9x       Rx   d 8 FF F0 FF FF FF FF FF FF  Length = 284000 BitCount = 146 ID = 409534457x
 460.008777 1  1868FFF9x       Rx   d 8 FF F0 FF FF FF FF FF FF  Length = 284000 BitCount = 146 ID = 409534457x
 