date Wed Feb 17 02:19:53.775 pm 2021
base hex  timestamps absolute
internal events logged
// version 14.0.0
// Measurement UUID: 1110eb18-379c-4cd5-8422-e8a3b0a94500
   0.001599 1  512             Rx   d 4 00 00 00 00  Length = 166256 BitCount = 86 ID = 1298
   0.050577 1  472             Rx   d 6 00 00 00 00 00 00  Length = 206259 BitCount = 106 ID = 1138
   0.100479 1  512             Rx   d 4 00 00 00 00  Length = 166256 BitCount = 86 ID = 1298
   0.100685 1  472             Rx   d 6 F4 01 00 00 00 00  Length = 200259 BitCount = 103 ID = 1138
   0.150672 1  472             Rx   d 6 E8 03 00 00 00 00  Length = 200259 BitCount = 103 ID = 1138
   0.200510 1  512             Rx   d 4 00 00 00 00  Length = 166256 BitCount = 86 ID = 1298
   0.200716 1  472             Rx   d 6 DC 05 00 00 00 00  Length = 200259 BitCount = 103 ID = 1138
   0.250756 1  472             Rx   d 6 D0 07 00 00 00 00  Length = 200259 BitCount = 103 ID = 1138
   0.300781 1  512             Rx   d 4 00 00 00 00  Length = 166256 BitCount = 86 ID = 1298
   0.300989 1  472             Rx   d 6 C4 09 00 00 00 00  Length = 202259 BitCount = 104 ID = 1138
   0.350837 1  472             Rx   d 6 B8 0B 00 00 00 00  Length = 200259 BitCount = 103 ID = 1138
   0.400673 1  512             Rx   d 4 00 00 00 00  Length = 166256 BitCount = 86 ID = 1298
   0.400882 1  472             Rx   d 6 AC 0D 00 00 00 00  Length = 202259 BitCount = 104 ID = 1138
   0.450790 1  472             Rx   d 6 A0 0F 00 00 00 00  Length = 200259 BitCount = 103 ID = 1138
   0.500760 1  512             Rx   d 4 00 00 00 00  Length = 166256 BitCount = 86 ID = 1298
   0.500966 1  472             Rx   d 6 94 11 00 00 00 00  Length = 200259 BitCount = 103 ID = 1138
   0.550817 1  472             Rx   d 6 88 13 00 00 00 00  Length = 200259 BitCount = 103 ID = 1138
   0.600697 1  512             Rx   d 4 00 00 00 00  Length = 166256 BitCount = 86 ID = 1298
   0.600907 1  472             Rx   d 6 7C 15 00 00 00 00  Length = 204259 BitCount = 105 ID = 1138
   0.650743 1  472             Rx   d 6 70 17 00 00 00 00  Length = 200259 BitCount = 103 ID = 1138
   0.700692 1  512             Rx   d 4 00 00 00 00  Length = 166256 BitCount = 86 ID = 1298
   0.700902 1  472             Rx   d 6 64 19 00 00 00 00  Length = 204259 BitCount = 105 ID = 1138
   0.750894 1  472             Rx   d 6 58 1B 00 00 00 00  Length = 200259 BitCount = 103 ID = 1138
   0.800774 1  512             Rx   d 4 00 00 00 00  Length = 166256 BitCount = 86 ID = 1298
   0.800983 1  472             Rx   d 6 4C 1D 00 00 00 00  Length = 202259 BitCount = 104 ID = 1138
   0.850813 1  472             Rx   d 6 40 1F 00 00 00 00  Length = 204259 BitCount = 105 ID = 1138
   0.900835 1  512             Rx   d 4 00 00 00 00  Length = 166256 BitCount = 86 ID = 1298
   0.901041 1  472             Rx   d 6 34 21 00 00 00 00  Length = 200259 BitCount = 103 ID = 1138
   0.950840 1  472             Rx   d 6 28 23 00 00 00 00  Length = 202259 BitCount = 104 ID = 1138
   1.000778 1  512             Rx   d 4 00 00 00 00  Length = 166256 BitCount = 86 ID = 1298
   1.000982 1  472             Rx   d 6 1C 25 00 00 00 00  Length = 198259 BitCount = 102 ID = 1138
   1.050722 1  472             Rx   d 6 10 27 00 00 00 00  Length = 202259 BitCount = 104 ID = 1138
   1.100703 1  512             Rx   d 4 00 00 00 00  Length = 166256 BitCount = 86 ID = 1298
   1.100909 1  472             Rx   d 6 04 29 00 00 00 00  Length = 200259 BitCount = 103 ID = 1138
   1.150769 1  472             Rx   d 6 F8 2A 00 00 00 00  Length = 202259 BitCount = 104 ID = 1138
   1.200651 1  512             Rx   d 4 00 00 00 00  Length = 166256 BitCount = 86 ID = 1298
   1.200860 1  472             Rx   d 6 EC 2C 00 00 00 00  Length = 202259 BitCount = 104 ID = 1138
   1.250706 1  472             Rx   d 6 E0 2E 00 00 00 00  Length = 202259 BitCount = 104 ID = 1138
   1.300832 1  512             Rx   d 4 00 00 00 00  Length = 166256 BitCount = 86 ID = 1298
   1.301038 1  472             Rx   d 6 D4 30 00 00 00 00  Length = 200259 BitCount = 103 ID = 1138
   1.350855 1  472             Rx   d 6 C8 32 00 00 00 00  Length = 200259 BitCount = 103 ID = 1138
   1.400843 1  512             Rx   d 4 00 00 00 00  Length = 166256 BitCount = 86 ID = 1298
   1.401049 1  472             Rx   d 6 BC 34 00 00 00 00  Length = 200259 BitCount = 103 ID = 1138
   1.450799 1  472             Rx   d 6 B0 36 00 00 00 00  Length = 200259 BitCount = 103 ID = 1138
   1.500634 1  512             Rx   d 4 00 00 00 00  Length = 166256 BitCount = 86 ID = 1298
   1.500840 1  472             Rx   d 6 A4 38 00 00 00 00  Length = 200259 BitCount = 103 ID = 1138
   1.550700 1  472             Rx   d 6 98 3A 00 00 00 00  Length = 200259 BitCount = 103 ID = 1138
   1.600672 1  512             Rx   d 4 00 00 00 00  Length = 166256 BitCount = 86 ID = 1298
   1.600877 1  472             Rx   d 6 8C 3C 00 00 00 00  Length = 198259 BitCount = 102 ID = 1138
   1.650673 1  472             Rx   d 6 80 3E 00 00 00 00  Length = 204259 BitCount = 105 ID = 1138
   1.700725 1  512             Rx   d 4 00 00 00 00  Length = 166256 BitCount = 86 ID = 1298
   1.700933 1  472             Rx   d 6 74 40 00 00 00 00  Length = 202259 BitCount = 104 ID = 1138
   1.750838 1  472             Rx   d 6 68 42 00 00 00 00  Length = 200259 BitCount = 103 ID = 1138
   1.800804 1  512             Rx   d 4 00 00 00 00  Length = 166256 BitCount = 86 ID = 1298
   1.801010 1  472             Rx   d 6 5C 44 00 00 00 00  Length = 200259 BitCount = 103 ID = 1138
   1.850916 1  472             Rx   d 6 50 46 00 00 00 00  Length = 202259 BitCount = 104 ID = 1138
   1.900771 1  512             Rx   d 4 00 00 00 00  Length = 166256 BitCount = 86 ID = 1298
   1.900979 1  472             Rx   d 6 44 48 00 00 00 00  Length = 202259 BitCount = 104 ID = 1138
   1.950869 1  472             Rx   d 6 38 4A 00 00 00 00  Length = 198259 BitCount = 102 ID = 1138
   2.000757 1  512             Rx   d 4 00 00 00 00  Length = 166256 BitCount = 86 ID = 1298
   2.000964 1  472             Rx   d 6 2C 4C 00 00 00 00  Length = 200259 BitCount = 103 ID = 1138
   2.050754 1  472             Rx   d 6 20 4E 00 00 00 00  Length = 200259 BitCount = 103 ID = 1138
   2.100770 1  512             Rx   d 4 00 00 00 00  Length = 166256 BitCount = 86 ID = 1298
   2.100978 1  472             Rx   d 6 14 50 00 00 00 00  Length = 202259 BitCount = 104 ID = 1138
   2.150591 1  472             Rx   d 6 08 52 00 00 00 00  Length = 200259 BitCount = 103 ID = 1138
   2.200673 1  512             Rx   d 4 00 00 00 00  Length = 166256 BitCount = 86 ID = 1298
   2.200881 1  472             Rx   d 6 FC 53 00 00 00 00  Length = 202259 BitCount = 104 ID = 1138
   2.250861 1  472             Rx   d 6 F0 55 00 00 00 00  Length = 202259 BitCount = 104 ID = 1138
   2.300744 1  512             Rx   d 4 00 00 00 00  Length = 166256 BitCount = 86 ID = 1298
   2.300948 1  472             Rx   d 6 E4 57 00 00 00 00  Length = 198259 BitCount = 102 ID = 1138
   2.350868 1  472             Rx   d 6 D8 59 00 00 00 00  Length = 198259 BitCount = 102 ID = 1138
   2.400836 1  512             Rx   d 4 00 00 00 00  Length = 166256 BitCount = 86 ID = 1298
   2.401041 1  472             Rx   d 6 CC 5B 00 00 00 00  Length = 198259 BitCount = 102 ID = 1138
   2.450879 1  472             Rx   d 6 C0 5D 00 00 00 00  Length = 200259 BitCount = 103 ID = 1138
   2.500705 1  512             Rx   d 4 00 00 00 00  Length = 166256 BitCount = 86 ID = 1298
   2.500913 1  472             Rx   d 6 B4 5F 00 00 00 00  Length = 202259 BitCount = 104 ID = 1138
   2.550754 1  472             Rx   d 6 A8 61 00 00 00 00  Length = 200259 BitCount = 103 ID = 1138
   2.600686 1  512             Rx   d 4 00 00 00 00  Length = 166256 BitCount = 86 ID = 1298
   2.600890 1  472             Rx   d 6 9C 63 00 00 00 00  Length = 198259 BitCount = 102 ID = 1138
   2.650728 1  472             Rx   d 6 90 65 00 00 00 00  Length = 200259 BitCount = 103 ID = 1138
   2.700531 1  512             Rx   d 4 00 00 00 00  Length = 166256 BitCount = 86 ID = 1298
   2.700737 1  472             Rx   d 6 84 67 00 00 00 00  Length = 200259 BitCount = 103 ID = 1138
   2.750737 1  472             Rx   d 6 78 69 00 00 00 00  Length = 200259 BitCount = 103 ID = 1138
   2.800777 1  512             Rx   d 4 00 00 00 00  Length = 166256 BitCount = 86 ID = 1298
   2.800982 1  472             Rx   d 6 6C 6B 00 00 00 00  Length = 198259 BitCount = 102 ID = 1138
   2.850948 1  472             Rx   d 6 60 6D 00 00 00 00  Length = 202259 BitCount = 104 ID = 1138
   2.900812 1  512             Rx   d 4 00 00 00 00  Length = 166256 BitCount = 86 ID = 1298
   2.901016 1  472             Rx   d 6 54 6F 00 00 00 00  Length = 198259 BitCount = 102 ID = 1138
   2.950705 1  472             Rx   d 6 48 71 00 00 00 00  Length = 200259 BitCount = 103 ID = 1138
   3.000699 1  512             Rx   d 4 00 00 00 00  Length = 166256 BitCount = 86 ID = 1298
   3.000903 1  472             Rx   d 6 3C 73 00 00 00 00  Length = 198259 BitCount = 102 ID = 1138
   3.050717 1  472             Rx   d 6 30 75 00 00 00 00  Length = 200259 BitCount = 103 ID = 1138
   3.100732 1  512             Rx   d 4 00 00 00 00  Length = 166256 BitCount = 86 ID = 1298
   3.100936 1  472             Rx   d 6 24 77 00 00 00 00  Length = 198259 BitCount = 102 ID = 1138
   3.150714 1  472             Rx   d 6 18 79 00 00 00 00  Length = 198259 BitCount = 102 ID = 1138
   3.200680 1  512             Rx   d 4 00 00 00 00  Length = 166256 BitCount = 86 ID = 1298
   3.200889 1  472             Rx   d 6 0C 7B 00 00 00 00  Length = 202259 BitCount = 104 ID = 1138
   3.250869 1  472             Rx   d 6 00 7D 00 00 00 00  Length = 204259 BitCount = 105 ID = 1138
   3.300833 1  512             Rx   d 4 00 00 00 00  Length = 166256 BitCount = 86 ID = 1298
   3.301041 1  472             Rx   d 6 F4 7E 00 00 00 00  Length = 202259 BitCount = 104 ID = 1138
   3.350868 1  472             Rx   d 6 E8 80 00 00 00 00  Length = 202259 BitCount = 104 ID = 1138
   3.400760 1  512             Rx   d 4 00 00 00 00  Length = 166256 BitCount = 86 ID = 1298
   3.400968 1  472             Rx   d 6 DC 82 00 00 00 00  Length = 202259 BitCount = 104 ID = 1138
   3.450812 1  472             Rx   d 6 D0 84 00 00 00 00  Length = 198259 BitCount = 102 ID = 1138
   3.500785 1  512             Rx   d 4 00 00 00 00  Length = 166256 BitCount = 86 ID = 1298
   3.500989 1  472             Rx   d 6 C4 86 00 00 00 00  Length = 198259 BitCount = 102 ID = 1138
   3.550807 1  472             Rx   d 6 B8 88 00 00 00 00  Length = 200259 BitCount = 103 ID = 1138
   3.600759 1  512             Rx   d 4 00 00 00 00  Length = 166256 BitCount = 86 ID = 1298
   3.600966 1  472             Rx   d 6 AC 8A 00 00 00 00  Length = 200259 BitCount = 103 ID = 1138
   3.650614 1  472             Rx   d 6 A0 8C 00 00 00 00  Length = 204259 BitCount = 105 ID = 1138
   3.700690 1  512             Rx   d 4 00 00 00 00  Length = 166256 BitCount = 86 ID = 1298
   3.700894 1  472             Rx   d 6 94 8E 00 00 00 00  Length = 198259 BitCount = 102 ID = 1138
   3.750643 1  472             Rx   d 6 88 90 00 00 00 00  Length = 200259 BitCount = 103 ID = 1138
   3.800787 1  512             Rx   d 4 00 00 00 00  Length = 166256 BitCount = 86 ID = 1298
   3.800995 1  472             Rx   d 6 7C 92 00 00 00 00  Length = 202259 BitCount = 104 ID = 1138
   3.850833 1  472             Rx   d 6 70 94 00 00 00 00  Length = 200259 BitCount = 103 ID = 1138
   3.900866 1  512             Rx   d 4 00 00 00 00  Length = 166256 BitCount = 86 ID = 1298
   3.901074 1  472             Rx   d 6 64 96 00 00 00 00  Length = 202259 BitCount = 104 ID = 1138
   3.950862 1  472             Rx   d 6 58 98 00 00 00 00  Length = 200259 BitCount = 103 ID = 1138
   4.000678 1  512             Rx   d 4 00 00 00 00  Length = 166256 BitCount = 86 ID = 1298
   4.000885 1  472             Rx   d 6 4C 9A 00 00 00 00  Length = 200259 BitCount = 103 ID = 1138
   4.050773 1  472             Rx   d 6 40 9C 00 00 00 00  Length = 202259 BitCount = 104 ID = 1138
   4.100735 1  512             Rx   d 4 00 00 00 00  Length = 166256 BitCount = 86 ID = 1298
   4.100939 1  472             Rx   d 6 34 9E 00 00 00 00  Length = 198259 BitCount = 102 ID = 1138
   4.150628 1  472             Rx   d 6 28 A0 00 00 00 00  Length = 202259 BitCount = 104 ID = 1138
   4.200702 1  512             Rx   d 4 00 00 00 00  Length = 166256 BitCount = 86 ID = 1298
   4.200910 1  472             Rx   d 6 1C A2 00 00 00 00  Length = 202259 BitCount = 104 ID = 1138
   4.250748 1  472             Rx   d 6 10 A4 00 00 00 00  Length = 198259 BitCount = 102 ID = 1138
   4.300825 1  512             Rx   d 4 00 00 00 00  Length = 166256 BitCount = 86 ID = 1298
   4.301031 1  472             Rx   d 6 04 A6 00 00 00 00  Length = 200259 BitCount = 103 ID = 1138
   4.350881 1  472             Rx   d 6 F8 A7 00 00 00 00  Length = 200259 BitCount = 103 ID = 1138
   4.400657 1  512             Rx   d 4 00 00 00 00  Length = 166256 BitCount = 86 ID = 1298
   4.400862 1  472             Rx   d 6 EC A9 00 00 00 00  Length = 198259 BitCount = 102 ID = 1138
   4.450826 1  472             Rx   d 6 E0 AB 00 00 00 00  Length = 202259 BitCount = 104 ID = 1138
   4.500562 1  512             Rx   d 4 00 00 00 00  Length = 166256 BitCount = 86 ID = 1298
   4.500766 1  472             Rx   d 6 D4 AD 00 00 00 00  Length = 198259 BitCount = 102 ID = 1138
   4.550725 1  472             Rx   d 6 C8 AF 00 00 00 00  Length = 200259 BitCount = 103 ID = 1138
   4.600605 1  512             Rx   d 4 00 00 00 00  Length = 166256 BitCount = 86 ID = 1298
   4.600811 1  472             Rx   d 6 BC B1 00 00 00 00  Length = 200259 BitCount = 103 ID = 1138
   4.650735 1  472             Rx   d 6 B0 B3 00 00 00 00  Length = 198259 BitCount = 102 ID = 1138
   4.700678 1  512             Rx   d 4 00 00 00 00  Length = 166256 BitCount = 86 ID = 1298
   4.700882 1  472             Rx   d 6 A4 B5 00 00 00 00  Length = 198259 BitCount = 102 ID = 1138
   4.750898 1  472             Rx   d 6 98 B7 00 00 00 00  Length = 202259 BitCount = 104 ID = 1138
   4.800856 1  512             Rx   d 4 00 00 00 00  Length = 166256 BitCount = 86 ID = 1298
   4.801061 1  472             Rx   d 6 8C B9 00 00 00 00  Length = 198259 BitCount = 102 ID = 1138
   4.850891 1  472             Rx   d 6 80 BB 00 00 00 00  Length = 202259 BitCount = 104 ID = 1138
   4.900853 1  512             Rx   d 4 00 00 00 00  Length = 166256 BitCount = 86 ID = 1298
   4.901059 1  472             Rx   d 6 74 BD 00 00 00 00  Length = 200259 BitCount = 103 ID = 1138
   4.950800 1  472             Rx   d 6 68 BF 00 00 00 00  Length = 200259 BitCount = 103 ID = 1138
   5.000782 1  512             Rx   d 4 00 00 00 00  Length = 166256 BitCount = 86 ID = 1298
   5.000988 1  472             Rx   d 6 5C C1 00 00 00 00  Length = 200259 BitCount = 103 ID = 1138
   5.050732 1  472             Rx   d 6 50 C3 00 00 00 00  Length = 198259 BitCount = 102 ID = 1138
   5.100727 1  512             Rx   d 4 00 00 00 00  Length = 166256 BitCount = 86 ID = 1298
   5.100931 1  472             Rx   d 6 44 C5 00 00 00 00  Length = 198259 BitCount = 102 ID = 1138
   5.150785 1  472             Rx   d 6 38 C7 00 00 00 00  Length = 198259 BitCount = 102 ID = 1138
   5.200653 1  512             Rx   d 4 00 00 00 00  Length = 166256 BitCount = 86 ID = 1298
   5.200860 1  472             Rx   d 6 2C C9 00 00 00 00  Length = 200259 BitCount = 103 ID = 1138
   5.250838 1  472             Rx   d 6 20 CB 00 00 00 00  Length = 202259 BitCount = 104 ID = 1138
   5.300834 1  512             Rx   d 4 00 00 00 00  Length = 166256 BitCount = 86 ID = 1298
   5.301040 1  472             Rx   d 6 14 CD 00 00 00 00  Length = 200259 BitCount = 103 ID = 1138
   5.350865 1  472             Rx   d 6 08 CF 00 00 00 00  Length = 200259 BitCount = 103 ID = 1138
   5.400701 1  512             Rx   d 4 00 00 00 00  Length = 166256 BitCount = 86 ID = 1298
   5.400909 1  472             Rx   d 6 FC D0 00 00 00 00  Length = 202259 BitCount = 104 ID = 1138
   5.450829 1  472             Rx   d 6 F0 D2 00 00 00 00  Length = 200259 BitCount = 103 ID = 1138
   5.500754 1  512             Rx   d 4 00 00 00 00  Length = 166256 BitCount = 86 ID = 1298
   5.500962 1  472             Rx   d 6 E4 D4 00 00 00 00  Length = 202259 BitCount = 104 ID = 1138
   5.550570 1  472             Rx   d 6 D8 D6 00 00 00 00  Length = 198259 BitCount = 102 ID = 1138
   5.600712 1  512             Rx   d 4 00 00 00 00  Length = 166256 BitCount = 86 ID = 1298
   5.600919 1  472             Rx   d 6 CC D8 00 00 00 00  Length = 200259 BitCount = 103 ID = 1138
   5.650701 1  472             Rx   d 6 C0 DA 00 00 00 00  Length = 200259 BitCount = 103 ID = 1138
   5.700633 1  512             Rx   d 4 00 00 00 00  Length = 166256 BitCount = 86 ID = 1298
   5.700839 1  472             Rx   d 6 B4 DC 00 00 00 00  Length = 200259 BitCount = 103 ID = 1138
   5.750736 1  472             Rx   d 6 A8 DE 00 00 00 00  Length = 202259 BitCount = 104 ID = 1138
   5.800846 1  512             Rx   d 4 00 00 00 00  Length = 166256 BitCount = 86 ID = 1298
   5.801052 1  472             Rx   d 6 9C E0 00 00 00 00  Length = 200259 BitCount = 103 ID = 1138
   5.850854 1  472             Rx   d 6 90 E2 00 00 00 00  Length = 200259 BitCount = 103 ID = 1138
   5.900785 1  512             Rx   d 4 00 00 00 00  Length = 166256 BitCount = 86 ID = 1298
   5.900993 1  472             Rx   d 6 84 E4 00 00 00 00  Length = 202259 BitCount = 104 ID = 1138
   5.950791 1  472             Rx   d 6 78 E6 00 00 00 00  Length = 198259 BitCount = 102 ID = 1138
   6.000605 1  512             Rx   d 4 00 00 00 00  Length = 166256 BitCount = 86 ID = 1298
   6.000814 1  472             Rx   d 6 6C E8 00 00 00 00  Length = 202259 BitCount = 104 ID = 1138
   6.050736 1  472             Rx   d 6 60 EA 00 00 00 00  Length = 200259 BitCount = 103 ID = 1138
   6.100684 1  512             Rx   d 4 00 00 00 00  Length = 166256 BitCount = 86 ID = 1298
   6.100894 1  472             Rx   d 6 54 EC 00 00 00 00  Length = 204259 BitCount = 105 ID = 1138
   6.150705 1  472             Rx   d 6 48 EE 00 00 00 00  Length = 202259 BitCount = 104 ID = 1138
   6.200781 1  512             Rx   d 4 00 00 00 00  Length = 166256 BitCount = 86 ID = 1298
   6.200989 1  472             Rx   d 6 3C F0 00 00 00 00  Length = 202259 BitCount = 104 ID = 1138
   6.250899 1  472             Rx   d 6 30 F2 00 00 00 00  Length = 204259 BitCount = 105 ID = 1138
   6.300762 1  512             Rx   d 4 00 00 00 00  Length = 166256 BitCount = 86 ID = 1298
   6.300970 1  472             Rx   d 6 24 F4 00 00 00 00  Length = 202259 BitCount = 104 ID = 1138
   6.350834 1  472             Rx   d 6 18 F6 00 00 00 00  Length = 198259 BitCount = 102 ID = 1138
   6.400640 1  512             Rx   d 4 00 00 00 00  Length = 166256 BitCount = 86 ID = 1298
   6.400855 1  472             Rx   d 6 0C F8 00 00 00 00  Length = 208259 BitCount = 107 ID = 1138
   6.450549 1  472             Rx   d 6 00 FA 00 00 00 00  Length = 202259 BitCount = 104 ID = 1138
   6.500557 1  512             Rx   d 4 00 00 00 00  Length = 166256 BitCount = 86 ID = 1298
   6.500763 1  472             Rx   d 6 F4 FB 00 00 00 00  Length = 200259 BitCount = 103 ID = 1138
   6.550514 1  472             Rx   d 6 E8 FD 00 00 00 00  Length = 200259 BitCount = 103 ID = 1138
   6.600484 1  512             Rx   d 4 00 00 00 00  Length = 166256 BitCount = 86 ID = 1298
   6.600690 1  472             Rx   d 6 DC FF 00 00 00 00  Length = 200259 BitCount = 103 ID = 1138
   6.650594 1  472             Rx   d 6 D0 01 01 00 00 00  Length = 202259 BitCount = 104 ID = 1138
   6.700423 1  512             Rx   d 4 00 00 00 00  Length = 166256 BitCount = 86 ID = 1298
   6.700631 1  472             Rx   d 6 C4 03 01 00 00 00  Length = 202259 BitCount = 104 ID = 1138
   6.750717 1  472             Rx   d 6 B8 05 01 00 00 00  Length = 202259 BitCount = 104 ID = 1138
   6.800589 1  512             Rx   d 4 00 00 00 00  Length = 166256 BitCount = 86 ID = 1298
   6.800796 1  472             Rx   d 6 AC 07 01 00 00 00  Length = 200259 BitCount = 103 ID = 1138
   6.850582 1  472             Rx   d 6 A0 09 01 00 00 00  Length = 200259 BitCount = 103 ID = 1138
   6.900530 1  512             Rx   d 4 00 00 00 00  Length = 166256 BitCount = 86 ID = 1298
   6.900734 1  472             Rx   d 6 94 0B 01 00 00 00  Length = 198259 BitCount = 102 ID = 1138
   6.950539 1  472             Rx   d 6 88 0D 01 00 00 00  Length = 200259 BitCount = 103 ID = 1138
   7.000489 1  512             Rx   d 4 00 00 00 00  Length = 166256 BitCount = 86 ID = 1298
   7.000699 1  472             Rx   d 6 7C 0F 01 00 00 00  Length = 204259 BitCount = 105 ID = 1138
   7.050531 1  472             Rx   d 6 70 11 01 00 00 00  Length = 200259 BitCount = 103 ID = 1138
   7.100478 1  512             Rx   d 4 00 00 00 00  Length = 166256 BitCount = 86 ID = 1298
   7.100684 1  472             Rx   d 6 64 13 01 00 00 00  Length = 200259 BitCount = 103 ID = 1138
   7.150474 1  472             Rx   d 6 58 15 01 00 00 00  Length = 204259 BitCount = 105 ID = 1138
   7.200416 1  512             Rx   d 4 00 00 00 00  Length = 166256 BitCount = 86 ID = 1298
   7.200623 1  472             Rx   d 6 4C 17 01 00 00 00  Length = 200259 BitCount = 103 ID = 1138
   7.250633 1  472             Rx   d 6 40 19 01 00 00 00  Length = 198259 BitCount = 102 ID = 1138
   7.300605 1  512             Rx   d 4 00 00 00 00  Length = 166256 BitCount = 86 ID = 1298
   7.300809 1  472             Rx   d 6 34 1B 01 00 00 00  Length = 198259 BitCount = 102 ID = 1138
   7.350612 1  472             Rx   d 6 28 1D 01 00 00 00  Length = 198259 BitCount = 102 ID = 1138
   7.400522 1  512             Rx   d 4 00 00 00 00  Length = 166256 BitCount = 86 ID = 1298
   7.400728 1  472             Rx   d 6 1C 1F 01 00 00 00  Length = 200259 BitCount = 103 ID = 1138
   7.450568 1  472             Rx   d 6 10 21 01 00 00 00  Length = 202259 BitCount = 104 ID = 1138
   7.500505 1  512             Rx   d 4 00 00 00 00  Length = 166256 BitCount = 86 ID = 1298
   7.500711 1  472             Rx   d 6 04 23 01 00 00 00  Length = 200259 BitCount = 103 ID = 1138
   7.550515 1  472             Rx   d 6 F8 24 01 00 00 00  Length = 202259 BitCount = 104 ID = 1138
   7.600501 1  512             Rx   d 4 00 00 00 00  Length = 166256 BitCount = 86 ID = 1298
   7.600708 1  472             Rx   d 6 EC 26 01 00 00 00  Length = 200259 BitCount = 103 ID = 1138
   7.650486 1  472             Rx   d 6 E0 28 01 00 00 00  Length = 202259 BitCount = 104 ID = 1138
   7.700414 1  512             Rx   d 4 00 00 00 00  Length = 166256 BitCount = 86 ID = 1298
   7.700616 1  472             Rx   d 6 D4 2A 01 00 00 00  Length = 196259 BitCount = 101 ID = 1138
   7.750645 1  472             Rx   d 6 C8 2C 01 00 00 00  Length = 200259 BitCount = 103 ID = 1138
   7.800579 1  512             Rx   d 4 00 00 00 00  Length = 166256 BitCount = 86 ID = 1298
   7.800781 1  472             Rx   d 6 BC 2E 01 00 00 00  Length = 196259 BitCount = 101 ID = 1138
   7.850563 1  472             Rx   d 6 B0 30 01 00 00 00  Length = 200259 BitCount = 103 ID = 1138
   7.900578 1  512             Rx   d 4 00 00 00 00  Length = 166256 BitCount = 86 ID = 1298
   7.900780 1  472             Rx   d 6 A4 32 01 00 00 00  Length = 196259 BitCount = 101 ID = 1138
   7.950568 1  472             Rx   d 6 98 34 01 00 00 00  Length = 200259 BitCount = 103 ID = 1138
   8.000502 1  512             Rx   d 4 00 00 00 00  Length = 166256 BitCount = 86 ID = 1298
   8.000705 1  472             Rx   d 6 8C 36 01 00 00 00  Length = 196259 BitCount = 101 ID = 1138
   8.050757 1  472             Rx   d 6 80 38 01 00 00 00  Length = 202259 BitCount = 104 ID = 1138
   8.100619 1  512             Rx   d 4 00 00 00 00  Length = 166256 BitCount = 86 ID = 1298
   8.100821 1  472             Rx   d 6 74 3A 01 00 00 00  Length = 196259 BitCount = 101 ID = 1138
   8.150566 1  472             Rx   d 6 68 3C 01 00 00 00  Length = 204259 BitCount = 105 ID = 1138
   8.200590 1  512             Rx   d 4 00 00 00 00  Length = 166256 BitCount = 86 ID = 1298
   8.200794 1  472             Rx   d 6 5C 3E 01 00 00 00  Length = 198259 BitCount = 102 ID = 1138
   8.250940 1  472             Rx   d 6 50 40 01 00 00 00  Length = 204259 BitCount = 105 ID = 1138
   8.300813 1  512             Rx   d 4 00 00 00 00  Length = 166256 BitCount = 86 ID = 1298
   8.301017 1  472             Rx   d 6 44 42 01 00 00 00  Length = 198259 BitCount = 102 ID = 1138
   8.350845 1  472             Rx   d 6 38 44 01 00 00 00  Length = 198259 BitCount = 102 ID = 1138
   8.400799 1  512             Rx   d 4 00 00 00 00  Length = 166256 BitCount = 86 ID = 1298
   8.401004 1  472             Rx   d 6 2C 46 01 00 00 00  Length = 198259 BitCount = 102 ID = 1138
   8.450838 1  472             Rx   d 6 20 48 01 00 00 00  Length = 200259 BitCount = 103 ID = 1138
   8.500590 1  512             Rx   d 4 00 00 00 00  Length = 166256 BitCount = 86 ID = 1298
   8.500792 1  472             Rx   d 6 14 4A 01 00 00 00  Length = 196259 BitCount = 101 ID = 1138
   8.550713 1  472             Rx   d 6 08 4C 01 00 00 00  Length = 198259 BitCount = 102 ID = 1138
   8.600743 1  512             Rx   d 4 00 00 00 00  Length = 166256 BitCount = 86 ID = 1298
   8.600949 1  472             Rx   d 6 FC 4D 01 00 00 00  Length = 200259 BitCount = 103 ID = 1138
   8.650781 1  472             Rx   d 6 F0 4F 01 00 00 00  Length = 202259 BitCount = 104 ID = 1138
   8.700674 1  512             Rx   d 4 00 00 00 00  Length = 166256 BitCount = 86 ID = 1298
   8.700876 1  472             Rx   d 6 E4 51 01 00 00 00  Length = 196259 BitCount = 101 ID = 1138
   8.750868 1  472             Rx   d 6 D8 53 01 00 00 00  Length = 196259 BitCount = 101 ID = 1138
   8.800790 1  512             Rx   d 4 00 00 00 00  Length = 166256 BitCount = 86 ID = 1298
   8.800995 1  472             Rx   d 6 CC 55 01 00 00 00  Length = 198259 BitCount = 102 ID = 1138
   8.850821 1  472             Rx   d 6 C0 57 01 00 00 00  Length = 200259 BitCount = 103 ID = 1138
   8.900957 1  512             Rx   d 4 00 00 00 00  Length = 166256 BitCount = 86 ID = 1298
   8.901161 1  472             Rx   d 6 B4 59 01 00 00 00  Length = 198259 BitCount = 102 ID = 1138
   8.950908 1  472             Rx   d 6 A8 5B 01 00 00 00  Length = 198259 BitCount = 102 ID = 1138
   9.000714 1  512             Rx   d 4 00 00 00 00  Length = 166256 BitCount = 86 ID = 1298
   9.000918 1  472             Rx   d 6 9C 5D 01 00 00 00  Length = 198259 BitCount = 102 ID = 1138
   9.050534 1  472             Rx   d 6 90 5F 01 00 00 00  Length = 200259 BitCount = 103 ID = 1138
   9.100527 1  512             Rx   d 4 00 00 00 00  Length = 166256 BitCount = 86 ID = 1298
   9.100731 1  472             Rx   d 6 84 61 01 00 00 00  Length = 198259 BitCount = 102 ID = 1138
   9.150605 1  472             Rx   d 6 78 63 01 00 00 00  Length = 200259 BitCount = 103 ID = 1138
   9.200409 1  512             Rx   d 4 00 00 00 00  Length = 166256 BitCount = 86 ID = 1298
   9.200616 1  472             Rx   d 6 6C 65 01 00 00 00  Length = 200259 BitCount = 103 ID = 1138
   9.250666 1  472             Rx   d 6 60 67 01 00 00 00  Length = 198259 BitCount = 102 ID = 1138
   9.300588 1  512             Rx   d 4 00 00 00 00  Length = 166256 BitCount = 86 ID = 1298
   9.300790 1  472             Rx   d 6 54 69 01 00 00 00  Length = 196259 BitCount = 101 ID = 1138
   9.350625 1  472             Rx   d 6 48 6B 01 00 00 00  Length = 196259 BitCount = 101 ID = 1138
   9.400593 1  512             Rx   d 4 00 00 00 00  Length = 166256 BitCount = 86 ID = 1298
   9.400797 1  472             Rx   d 6 3C 6D 01 00 00 00  Length = 198259 BitCount = 102 ID = 1138
   9.450575 1  472             Rx   d 6 30 6F 01 00 00 00  Length = 200259 BitCount = 103 ID = 1138
   9.500588 1  512             Rx   d 4 00 00 00 00  Length = 166256 BitCount = 86 ID = 1298
   9.500790 1  472             Rx   d 6 24 71 01 00 00 00  Length = 196259 BitCount = 101 ID = 1138
   9.550498 1  472             Rx   d 6 18 73 01 00 00 00  Length = 196259 BitCount = 101 ID = 1138
   9.600502 1  512             Rx   d 4 00 00 00 00  Length = 166256 BitCount = 86 ID = 1298
   9.600707 1  472             Rx   d 6 0C 75 01 00 00 00  Length = 198259 BitCount = 102 ID = 1138
   9.650497 1  472             Rx   d 6 00 77 01 00 00 00  Length = 202259 BitCount = 104 ID = 1138
   9.700435 1  512             Rx   d 4 00 00 00 00  Length = 166256 BitCount = 86 ID = 1298
   9.700641 1  472             Rx   d 6 F4 78 01 00 00 00  Length = 200259 BitCount = 103 ID = 1138
   9.750694 1  472             Rx   d 6 E8 7A 01 00 00 00  Length = 200259 BitCount = 103 ID = 1138
   9.800584 1  512             Rx   d 4 00 00 00 00  Length = 166256 BitCount = 86 ID = 1298
   9.800792 1  472             Rx   d 6 DC 7C 01 00 00 00  Length = 202259 BitCount = 104 ID = 1138
   9.850614 1  472             Rx   d 6 D0 7E 01 00 00 00  Length = 202259 BitCount = 104 ID = 1138
   9.900583 1  512             Rx   d 4 00 00 00 00  Length = 166256 BitCount = 86 ID = 1298
   9.900787 1  472             Rx   d 6 C4 80 01 00 00 00  Length = 198259 BitCount = 102 ID = 1138
   9.950535 1  472             Rx   d 6 B8 82 01 00 00 00  Length = 200259 BitCount = 103 ID = 1138
  10.000531 1  512             Rx   d 4 00 00 00 00  Length = 166256 BitCount = 86 ID = 1298
  10.000736 1  472             Rx   d 6 AC 84 01 00 00 00  Length = 198259 BitCount = 102 ID = 1138
  10.050512 1  472             Rx   d 6 A0 86 01 00 00 00  Length = 204259 BitCount = 105 ID = 1138
  10.100466 1  512             Rx   d 4 00 00 00 00  Length = 166256 BitCount = 86 ID = 1298
  10.100672 1  472             Rx   d 6 94 88 01 00 00 00  Length = 200259 BitCount = 103 ID = 1138
  10.150483 1  472             Rx   d 6 88 8A 01 00 00 00  Length = 198259 BitCount = 102 ID = 1138
  10.200427 1  512             Rx   d 4 00 00 00 00  Length = 166256 BitCount = 86 ID = 1298
  10.200631 1  472             Rx   d 6 7C 8C 01 00 00 00  Length = 198259 BitCount = 102 ID = 1138
  10.250649 1  472             Rx   d 6 70 8E 01 00 00 00  Length = 198259 BitCount = 102 ID = 1138
  10.300586 1  512             Rx   d 4 00 00 00 00  Length = 166256 BitCount = 86 ID = 1298
  10.300792 1  472             Rx   d 6 64 90 01 00 00 00  Length = 200259 BitCount = 103 ID = 1138
  10.350584 1  472             Rx   d 6 58 92 01 00 00 00  Length = 196259 BitCount = 101 ID = 1138
  10.400622 1  512             Rx   d 4 00 00 00 00  Length = 166256 BitCount = 86 ID = 1298
  10.400825 1  472             Rx   d 6 4C 94 01 00 00 00  Length = 196259 BitCount = 101 ID = 1138
  10.450555 1  472             Rx   d 6 40 96 01 00 00 00  Length = 202259 BitCount = 104 ID = 1138
  10.500707 1  512             Rx   d 4 00 00 00 00  Length = 166256 BitCount = 86 ID = 1298
  10.500915 1  472             Rx   d 6 34 98 01 00 00 00  Length = 202015 BitCount = 104 ID = 1138
  10.550711 1  472             Rx   d 6 28 9A 01 00 00 00  Length = 200259 BitCount = 103 ID = 1138
  10.600676 1  512             Rx   d 4 00 00 00 00  Length = 166256 BitCount = 86 ID = 1298
  10.600880 1  472             Rx   d 6 1C 9C 01 00 00 00  Length = 198259 BitCount = 102 ID = 1138
  10.650736 1  472             Rx   d 6 10 9E 01 00 00 00  Length = 198259 BitCount = 102 ID = 1138
  10.700642 1  512             Rx   d 4 00 00 00 00  Length = 166256 BitCount = 86 ID = 1298
  10.700849 1  472             Rx   d 6 04 A0 01 00 00 00  Length = 200259 BitCount = 103 ID = 1138
  10.750761 1  472             Rx   d 6 F8 A1 01 00 00 00  Length = 198259 BitCount = 102 ID = 1138
  10.800857 1  512             Rx   d 4 00 00 00 00  Length = 166256 BitCount = 86 ID = 1298
  10.801059 1  472             Rx   d 6 EC A3 01 00 00 00  Length = 196259 BitCount = 101 ID = 1138
  10.850854 1  472             Rx   d 6 E0 A5 01 00 00 00  Length = 200259 BitCount = 103 ID = 1138
  10.900616 1  512             Rx   d 4 00 00 00 00  Length = 166256 BitCount = 86 ID = 1298
  10.900820 1  472             Rx   d 6 D4 A7 01 00 00 00  Length = 198259 BitCount = 102 ID = 1138
  10.950534 1  472             Rx   d 6 C8 A9 01 00 00 00  Length = 200259 BitCount = 103 ID = 1138
  11.000503 1  512             Rx   d 4 00 00 00 00  Length = 166256 BitCount = 86 ID = 1298
  11.000709 1  472             Rx   d 6 BC AB 01 00 00 00  Length = 200259 BitCount = 103 ID = 1138
  11.050695 1  472             Rx   d 6 B0 AD 01 00 00 00  Length = 196259 BitCount = 101 ID = 1138
  11.100777 1  512             Rx   d 4 00 00 00 00  Length = 166256 BitCount = 86 ID = 1298
  11.100980 1  472             Rx   d 6 A4 AF 01 00 00 00  Length = 196259 BitCount = 101 ID = 1138
  11.150786 1  472             Rx   d 6 98 B1 01 00 00 00  Length = 202259 BitCount = 104 ID = 1138
  11.200598 1  512             Rx   d 4 00 00 00 00  Length = 166256 BitCount = 86 ID = 1298
  11.200802 1  472             Rx   d 6 8C B3 01 00 00 00  Length = 198259 BitCount = 102 ID = 1138
  11.250819 1  472             Rx   d 6 80 B5 01 00 00 00  Length = 198259 BitCount = 102 ID = 1138
  11.300789 1  512             Rx   d 4 00 00 00 00  Length = 166256 BitCount = 86 ID = 1298
  11.300993 1  472             Rx   d 6 74 B7 01 00 00 00  Length = 198259 BitCount = 102 ID = 1138
  11.350911 1  472             Rx   d 6 68 B9 01 00 00 00  Length = 198259 BitCount = 102 ID = 1138
  11.400826 1  512             Rx   d 4 00 00 00 00  Length = 166256 BitCount = 86 ID = 1298
  11.401030 1  472             Rx   d 6 5C BB 01 00 00 00  Length = 198259 BitCount = 102 ID = 1138
  11.450864 1  472             Rx   d 6 50 BD 01 00 00 00  Length = 198259 BitCount = 102 ID = 1138
  11.500522 1  512             Rx   d 4 00 00 00 00  Length = 166256 BitCount = 86 ID = 1298
  11.500727 1  472             Rx   d 6 44 BF 01 00 00 00  Length = 198259 BitCount = 102 ID = 1138
  11.550547 1  472             Rx   d 6 38 C1 01 00 00 00  Length = 200259 BitCount = 103 ID = 1138
  11.600499 1  512             Rx   d 4 00 00 00 00  Length = 166256 BitCount = 86 ID = 1298
  11.600703 1  472             Rx   d 6 2C C3 01 00 00 00  Length = 198259 BitCount = 102 ID = 1138
  11.650484 1  472             Rx   d 6 20 C5 01 00 00 00  Length = 200259 BitCount = 103 ID = 1138
  11.700464 1  512             Rx   d 4 00 00 00 00  Length = 166256 BitCount = 86 ID = 1298
  11.700670 1  472             Rx   d 6 14 C7 01 00 00 00  Length = 200259 BitCount = 103 ID = 1138
  11.750652 1  472             Rx   d 6 08 C9 01 00 00 00  Length = 200259 BitCount = 103 ID = 1138
  11.800563 1  512             Rx   d 4 00 00 00 00  Length = 166256 BitCount = 86 ID = 1298
  11.800769 1  472             Rx   d 6 FC CA 01 00 00 00  Length = 200259 BitCount = 103 ID = 1138
  11.850625 1  472             Rx   d 6 F0 CC 01 00 00 00  Length = 198259 BitCount = 102 ID = 1138
  11.900591 1  512             Rx   d 4 00 00 00 00  Length = 166256 BitCount = 86 ID = 1298
  11.900796 1  472             Rx   d 6 E4 CE 01 00 00 00  Length = 198259 BitCount = 102 ID = 1138
  11.950558 1  472             Rx   d 6 D8 D0 01 00 00 00  Length = 200259 BitCount = 103 ID = 1138
  12.000556 1  512             Rx   d 4 00 00 00 00  Length = 166256 BitCount = 86 ID = 1298
  12.000760 1  472             Rx   d 6 CC D2 01 00 00 00  Length = 198259 BitCount = 102 ID = 1138
  12.050567 1  472             Rx   d 6 C0 D4 01 00 00 00  Length = 200259 BitCount = 103 ID = 1138
  12.100469 1  512             Rx   d 4 00 00 00 00  Length = 166256 BitCount = 86 ID = 1298
  12.100671 1  472             Rx   d 6 B4 D6 01 00 00 00  Length = 196259 BitCount = 101 ID = 1138
  12.150507 1  472             Rx   d 6 A8 D8 01 00 00 00  Length = 202259 BitCount = 104 ID = 1138
  12.200580 1  512             Rx   d 4 00 00 00 00  Length = 166256 BitCount = 86 ID = 1298
  12.200782 1  472             Rx   d 6 9C DA 01 00 00 00  Length = 196259 BitCount = 101 ID = 1138
  12.250628 1  472             Rx   d 6 90 DC 01 00 00 00  Length = 200259 BitCount = 103 ID = 1138
  12.300604 1  512             Rx   d 4 00 00 00 00  Length = 166256 BitCount = 86 ID = 1298
  12.300809 1  472             Rx   d 6 84 DE 01 00 00 00  Length = 198259 BitCount = 102 ID = 1138
  12.350611 1  472             Rx   d 6 78 E0 01 00 00 00  Length = 198259 BitCount = 102 ID = 1138
  12.400561 1  512             Rx   d 4 00 00 00 00  Length = 166256 BitCount = 86 ID = 1298
  12.400763 1  472             Rx   d 6 6C E2 01 00 00 00  Length = 196259 BitCount = 101 ID = 1138
  12.450592 1  472             Rx   d 6 60 E4 01 00 00 00  Length = 200259 BitCount = 103 ID = 1138
  12.500526 1  512             Rx   d 4 00 00 00 00  Length = 166256 BitCount = 86 ID = 1298
  12.500730 1  472             Rx   d 6 54 E6 01 00 00 00  Length = 198259 BitCount = 102 ID = 1138
  12.550538 1  472             Rx   d 6 48 E8 01 00 00 00  Length = 202259 BitCount = 104 ID = 1138
  12.600455 1  512             Rx   d 4 00 00 00 00  Length = 166256 BitCount = 86 ID = 1298
  12.600661 1  472             Rx   d 6 3C EA 01 00 00 00  Length = 200259 BitCount = 103 ID = 1138
  12.650467 1  472             Rx   d 6 30 EC 01 00 00 00  Length = 196259 BitCount = 101 ID = 1138
  12.700447 1  512             Rx   d 4 00 00 00 00  Length = 166256 BitCount = 86 ID = 1298
  12.700652 1  472             Rx   d 6 24 EE 01 00 00 00  Length = 198259 BitCount = 102 ID = 1138
  12.750840 1  472             Rx   d 6 18 F0 01 00 00 00  Length = 200259 BitCount = 103 ID = 1138
  12.800770 1  512             Rx   d 4 00 00 00 00  Length = 166256 BitCount = 86 ID = 1298
  12.800976 1  472             Rx   d 6 0C F2 01 00 00 00  Length = 200259 BitCount = 103 ID = 1138
  12.850931 1  472             Rx   d 6 00 F4 01 00 00 00  Length = 200259 BitCount = 103 ID = 1138
  12.900761 1  512             Rx   d 4 00 00 00 00  Length = 166256 BitCount = 86 ID = 1298
  12.900963 1  472             Rx   d 6 F4 F5 01 00 00 00  Length = 196259 BitCount = 101 ID = 1138
  12.950851 1  472             Rx   d 6 E8 F7 01 00 00 00  Length = 196259 BitCount = 101 ID = 1138
  13.000650 1  512             Rx   d 4 00 00 00 00  Length = 166256 BitCount = 86 ID = 1298
  13.000854 1  472             Rx   d 6 DC F9 01 00 00 00  Length = 198259 BitCount = 102 ID = 1138
  13.050732 1  472             Rx   d 6 D0 FB 01 00 00 00  Length = 202259 BitCount = 104 ID = 1138
  13.100712 1  512             Rx   d 4 00 00 00 00  Length = 166256 BitCount = 86 ID = 1298
  13.100921 1  472             Rx   d 6 C4 FD 01 00 00 00  Length = 202259 BitCount = 104 ID = 1138
  13.150701 1  472             Rx   d 6 B8 FF 01 00 00 00  Length = 202259 BitCount = 104 ID = 1138
  13.200693 1  512             Rx   d 4 00 00 00 00  Length = 166256 BitCount = 86 ID = 1298
  13.200899 1  472             Rx   d 6 AC 01 02 00 00 00  Length = 200259 BitCount = 103 ID = 1138
  13.250738 1  472             Rx   d 6 A0 03 02 00 00 00  Length = 202259 BitCount = 104 ID = 1138
  13.300738 1  512             Rx   d 4 00 00 00 00  Length = 166256 BitCount = 86 ID = 1298
  13.300944 1  472             Rx   d 6 94 05 02 00 00 00  Length = 200259 BitCount = 103 ID = 1138
  13.350862 1  472             Rx   d 6 88 07 02 00 00 00  Length = 200259 BitCount = 103 ID = 1138
  13.400733 1  512             Rx   d 4 00 00 00 00  Length = 166256 BitCount = 86 ID = 1298
  13.400941 1  472             Rx   d 6 7C 09 02 00 00 00  Length = 202259 BitCount = 104 ID = 1138
  13.450721 1  472             Rx   d 6 70 0B 02 00 00 00  Length = 200259 BitCount = 103 ID = 1138
  13.500635 1  512             Rx   d 4 00 00 00 00  Length = 166256 BitCount = 86 ID = 1298
  13.500842 1  472             Rx   d 6 64 0D 02 00 00 00  Length = 200259 BitCount = 103 ID = 1138
  13.550746 1  472             Rx   d 6 58 0F 02 00 00 00  Length = 200259 BitCount = 103 ID = 1138
  13.600728 1  512             Rx   d 4 00 00 00 00  Length = 166256 BitCount = 86 ID = 1298
  13.600934 1  472             Rx   d 6 4C 11 02 00 00 00  Length = 200259 BitCount = 103 ID = 1138
  13.650741 1  472             Rx   d 6 40 13 02 00 00 00  Length = 200259 BitCount = 103 ID = 1138
  13.700655 1  512             Rx   d 4 00 00 00 00  Length = 166256 BitCount = 86 ID = 1298
  13.700861 1  472             Rx   d 6 34 15 02 00 00 00  Length = 200259 BitCount = 103 ID = 1138
  13.750661 1  472             Rx   d 6 28 17 02 00 00 00  Length = 200259 BitCount = 103 ID = 1138
  13.800576 1  512             Rx   d 4 00 00 00 00  Length = 166256 BitCount = 86 ID = 1298
  13.800782 1  472             Rx   d 6 1C 19 02 00 00 00  Length = 200015 BitCount = 103 ID = 1138
  13.850612 1  472             Rx   d 6 10 1B 02 00 00 00  Length = 202259 BitCount = 104 ID = 1138
  13.900576 1  512             Rx   d 4 00 00 00 00  Length = 166256 BitCount = 86 ID = 1298
  13.900784 1  472             Rx   d 6 04 1D 02 00 00 00  Length = 202259 BitCount = 104 ID = 1138
  13.950609 1  472             Rx   d 6 F8 1E 02 00 00 00  Length = 202259 BitCount = 104 ID = 1138
  14.000479 1  512             Rx   d 4 00 00 00 00  Length = 166256 BitCount = 86 ID = 1298
  14.000685 1  472             Rx   d 6 EC 20 02 00 00 00  Length = 200259 BitCount = 103 ID = 1138
  14.050553 1  472             Rx   d 6 E0 22 02 00 00 00  Length = 200259 BitCount = 103 ID = 1138
  14.100452 1  512             Rx   d 4 00 00 00 00  Length = 166256 BitCount = 86 ID = 1298
  14.100656 1  472             Rx   d 6 D4 24 02 00 00 00  Length = 198259 BitCount = 102 ID = 1138
  14.150586 1  472             Rx   d 6 C8 26 02 00 00 00  Length = 200259 BitCount = 103 ID = 1138
  14.200452 1  512             Rx   d 4 00 00 00 00  Length = 166256 BitCount = 86 ID = 1298
  14.200657 1  472             Rx   d 6 BC 28 02 00 00 00  Length = 198259 BitCount = 102 ID = 1138
  14.250735 1  472             Rx   d 6 B0 2A 02 00 00 00  Length = 200259 BitCount = 103 ID = 1138
  14.300601 1  512             Rx   d 4 00 00 00 00  Length = 166256 BitCount = 86 ID = 1298
  14.300807 1  472             Rx   d 6 A4 2C 02 00 00 00  Length = 200259 BitCount = 103 ID = 1138
  14.350650 1  472             Rx   d 6 98 2E 02 00 00 00  Length = 200259 BitCount = 103 ID = 1138
  14.400556 1  512             Rx   d 4 00 00 00 00  Length = 166256 BitCount = 86 ID = 1298
  14.400762 1  472             Rx   d 6 8C 30 02 00 00 00  Length = 200259 BitCount = 103 ID = 1138
  14.450628 1  472             Rx   d 6 80 32 02 00 00 00  Length = 200259 BitCount = 103 ID = 1138
  14.500567 1  512             Rx   d 4 00 00 00 00  Length = 166256 BitCount = 86 ID = 1298
  14.500773 1  472             Rx   d 6 74 34 02 00 00 00  Length = 200259 BitCount = 103 ID = 1138
  14.550535 1  472             Rx   d 6 68 36 02 00 00 00  Length = 202259 BitCount = 104 ID = 1138
  14.600513 1  512             Rx   d 4 00 00 00 00  Length = 166256 BitCount = 86 ID = 1298
  14.600718 1  472             Rx   d 6 5C 38 02 00 00 00  Length = 198259 BitCount = 102 ID = 1138
  14.650494 1  472             Rx   d 6 50 3A 02 00 00 00  Length = 200259 BitCount = 103 ID = 1138
  14.700428 1  512             Rx   d 4 00 00 00 00  Length = 166256 BitCount = 86 ID = 1298
  14.700632 1  472             Rx   d 6 44 3C 02 00 00 00  Length = 198259 BitCount = 102 ID = 1138
  14.750665 1  472             Rx   d 6 38 3E 02 00 00 00  Length = 204259 BitCount = 105 ID = 1138
  14.800629 1  512             Rx   d 4 00 00 00 00  Length = 166256 BitCount = 86 ID = 1298
  14.800837 1  472             Rx   d 6 2C 40 02 00 00 00  Length = 202259 BitCount = 104 ID = 1138
  14.850623 1  472             Rx   d 6 20 42 02 00 00 00  Length = 202259 BitCount = 104 ID = 1138
  14.900540 1  512             Rx   d 4 00 00 00 00  Length = 166256 BitCount = 86 ID = 1298
  14.900746 1  472             Rx   d 6 14 44 02 00 00 00  Length = 200259 BitCount = 103 ID = 1138
  14.950572 1  472             Rx   d 6 08 46 02 00 00 00  Length = 200259 BitCount = 103 ID = 1138
  15.000502 1  512             Rx   d 4 00 00 00 00  Length = 166256 BitCount = 86 ID = 1298
  15.000709 1  472             Rx   d 6 FC 47 02 00 00 00  Length = 200259 BitCount = 103 ID = 1138
  15.050523 1  472             Rx   d 6 F0 49 02 00 00 00  Length = 202259 BitCount = 104 ID = 1138
  15.100437 1  512             Rx   d 4 00 00 00 00  Length = 166256 BitCount = 86 ID = 1298
  15.100641 1  472             Rx   d 6 E4 4B 02 00 00 00  Length = 198259 BitCount = 102 ID = 1138
  15.150448 1  472             Rx   d 6 D8 4D 02 00 00 00  Length = 198259 BitCount = 102 ID = 1138
  15.200420 1  512             Rx   d 4 00 00 00 00  Length = 166256 BitCount = 86 ID = 1298
  15.200624 1  472             Rx   d 6 CC 4F 02 00 00 00  Length = 198259 BitCount = 102 ID = 1138
  15.250620 1  472             Rx   d 6 C0 51 02 00 00 00  Length = 200259 BitCount = 103 ID = 1138
  15.300705 1  512             Rx   d 4 00 00 00 00  Length = 166256 BitCount = 86 ID = 1298
  15.300909 1  472             Rx   d 6 B4 53 02 00 00 00  Length = 198259 BitCount = 102 ID = 1138
  15.350597 1  472             Rx   d 6 A8 55 02 00 00 00  Length = 200259 BitCount = 103 ID = 1138
  15.400595 1  512             Rx   d 4 00 00 00 00  Length = 166256 BitCount = 86 ID = 1298
  15.400800 1  472             Rx   d 6 9C 57 02 00 00 00  Length = 198259 BitCount = 102 ID = 1138
  15.450536 1  472             Rx   d 6 90 59 02 00 00 00  Length = 200259 BitCount = 103 ID = 1138
  15.500572 1  512             Rx   d 4 00 00 00 00  Length = 166256 BitCount = 86 ID = 1298
  15.500776 1  472             Rx   d 6 84 5B 02 00 00 00  Length = 198259 BitCount = 102 ID = 1138
  15.550503 1  472             Rx   d 6 78 5D 02 00 00 00  Length = 198259 BitCount = 102 ID = 1138
  15.600441 1  512             Rx   d 4 00 00 00 00  Length = 166256 BitCount = 86 ID = 1298
  15.600647 1  472             Rx   d 6 6C 5F 02 00 00 00  Length = 200259 BitCount = 103 ID = 1138
  15.650475 1  472             Rx   d 6 60 61 02 00 00 00  Length = 200259 BitCount = 103 ID = 1138
  15.700436 1  512             Rx   d 4 00 00 00 00  Length = 166256 BitCount = 86 ID = 1298
  15.700640 1  472             Rx   d 6 54 63 02 00 00 00  Length = 198259 BitCount = 102 ID = 1138
  15.750660 1  472             Rx   d 6 48 65 02 00 00 00  Length = 198259 BitCount = 102 ID = 1138
  15.800610 1  512             Rx   d 4 00 00 00 00  Length = 166256 BitCount = 86 ID = 1298
  15.800817 1  472             Rx   d 6 3C 67 02 00 00 00  Length = 200259 BitCount = 103 ID = 1138
  15.850591 1  472             Rx   d 6 30 69 02 00 00 00  Length = 200259 BitCount = 103 ID = 1138
  15.900577 1  512             Rx   d 4 00 00 00 00  Length = 166256 BitCount = 86 ID = 1298
  15.900783 1  472             Rx   d 6 24 6B 02 00 00 00  Length = 200259 BitCount = 103 ID = 1138
  15.950554 1  472             Rx   d 6 18 6D 02 00 00 00  Length = 198259 BitCount = 102 ID = 1138
  16.000532 1  512             Rx   d 4 00 00 00 00  Length = 166256 BitCount = 86 ID = 1298
  16.000738 1  472             Rx   d 6 0C 6F 02 00 00 00  Length = 200259 BitCount = 103 ID = 1138
  16.050472 1  472             Rx   d 6 00 71 02 00 00 00  Length = 202259 BitCount = 104 ID = 1138
  16.100739 1  512             Rx   d 4 00 00 00 00  Length = 166256 BitCount = 86 ID = 1298
  16.100945 1  472             Rx   d 6 F4 72 02 00 00 00  Length = 200259 BitCount = 103 ID = 1138
  16.150481 1  472             Rx   d 6 E8 74 02 00 00 00  Length = 198259 BitCount = 102 ID = 1138
  16.200433 1  512             Rx   d 4 00 00 00 00  Length = 166256 BitCount = 86 ID = 1298
  16.200638 1  472             Rx   d 6 DC 76 02 00 00 00  Length = 198259 BitCount = 102 ID = 1138
  16.250638 1  472             Rx   d 6 D0 78 02 00 00 00  Length = 206259 BitCount = 106 ID = 1138
  16.300610 1  512             Rx   d 4 00 00 00 00  Length = 166256 BitCount = 86 ID = 1298
  16.300814 1  472             Rx   d 6 C4 7A 02 00 00 00  Length = 198259 BitCount = 102 ID = 1138
  16.350609 1  472             Rx   d 6 B8 7C 02 00 00 00  Length = 200259 BitCount = 103 ID = 1138
  16.400543 1  512             Rx   d 4 00 00 00 00  Length = 166256 BitCount = 86 ID = 1298
  16.400753 1  472             Rx   d 6 AC 7E 02 00 00 00  Length = 204259 BitCount = 105 ID = 1138
  16.450549 1  472             Rx   d 6 A0 80 02 00 00 00  Length = 202259 BitCount = 104 ID = 1138
  16.500526 1  512             Rx   d 4 00 00 00 00  Length = 166256 BitCount = 86 ID = 1298
  16.500732 1  472             Rx   d 6 94 82 02 00 00 00  Length = 200259 BitCount = 103 ID = 1138
  16.550502 1  472             Rx   d 6 88 84 02 00 00 00  Length = 198259 BitCount = 102 ID = 1138
  16.600466 1  512             Rx   d 4 00 00 00 00  Length = 166256 BitCount = 86 ID = 1298
  16.600673 1  472             Rx   d 6 7C 86 02 00 00 00  Length = 200259 BitCount = 103 ID = 1138
  16.650545 1  472             Rx   d 6 70 88 02 00 00 00  Length = 198259 BitCount = 102 ID = 1138
  16.700437 1  512             Rx   d 4 00 00 00 00  Length = 166256 BitCount = 86 ID = 1298
  16.700643 1  472             Rx   d 6 64 8A 02 00 00 00  Length = 200259 BitCount = 103 ID = 1138
  16.750628 1  472             Rx   d 6 58 8C 02 00 00 00  Length = 200259 BitCount = 103 ID = 1138
  16.800596 1  512             Rx   d 4 00 00 00 00  Length = 166256 BitCount = 86 ID = 1298
  16.800802 1  472             Rx   d 6 4C 8E 02 00 00 00  Length = 200259 BitCount = 103 ID = 1138
  16.850624 1  472             Rx   d 6 40 90 02 00 00 00  Length = 202259 BitCount = 104 ID = 1138
  16.900553 1  512             Rx   d 4 00 00 00 00  Length = 166256 BitCount = 86 ID = 1298
  16.900757 1  472             Rx   d 6 34 92 02 00 00 00  Length = 198259 BitCount = 102 ID = 1138
  16.950569 1  472             Rx   d 6 28 94 02 00 00 00  Length = 200259 BitCount = 103 ID = 1138
  17.000505 1  512             Rx   d 4 00 00 00 00  Length = 166256 BitCount = 86 ID = 1298
  17.000710 1  472             Rx   d 6 1C 96 02 00 00 00  Length = 198259 BitCount = 102 ID = 1138
  17.050552 1  472             Rx   d 6 10 98 02 00 00 00  Length = 198259 BitCount = 102 ID = 1138
  17.100500 1  512             Rx   d 4 00 00 00 00  Length = 166256 BitCount = 86 ID = 1298
  17.100708 1  472             Rx   d 6 04 9A 02 00 00 00  Length = 202259 BitCount = 104 ID = 1138
  17.150489 1  472             Rx   d 6 F8 9B 02 00 00 00  Length = 202259 BitCount = 104 ID = 1138
  17.200477 1  512             Rx   d 4 00 00 00 00  Length = 166256 BitCount = 86 ID = 1298
  17.200681 1  472             Rx   d 6 EC 9D 02 00 00 00  Length = 198259 BitCount = 102 ID = 1138
  17.250693 1  472             Rx   d 6 E0 9F 02 00 00 00  Length = 202259 BitCount = 104 ID = 1138
  17.300630 1  512             Rx   d 4 00 00 00 00  Length = 166256 BitCount = 86 ID = 1298
  17.300836 1  472             Rx   d 6 D4 A1 02 00 00 00  Length = 200259 BitCount = 103 ID = 1138
  17.350614 1  472             Rx   d 6 C8 A3 02 00 00 00  Length = 202259 BitCount = 104 ID = 1138
  17.400598 1  512             Rx   d 4 00 00 00 00  Length = 166256 BitCount = 86 ID = 1298
  17.400803 1  472             Rx   d 6 BC A5 02 00 00 00  Length = 198259 BitCount = 102 ID = 1138
  17.450559 1  472             Rx   d 6 B0 A7 02 00 00 00  Length = 198259 BitCount = 102 ID = 1138
  17.500685 1  512             Rx   d 4 00 00 00 00  Length = 166256 BitCount = 86 ID = 1298
  17.500891 1  472             Rx   d 6 A4 A9 02 00 00 00  Length = 200259 BitCount = 103 ID = 1138
  17.550534 1  472             Rx   d 6 98 AB 02 00 00 00  Length = 198259 BitCount = 102 ID = 1138
  17.600466 1  512             Rx   d 4 00 00 00 00  Length = 166256 BitCount = 86 ID = 1298
  17.600670 1  472             Rx   d 6 8C AD 02 00 00 00  Length = 198259 BitCount = 102 ID = 1138
  17.650468 1  472             Rx   d 6 80 AF 02 00 00 00  Length = 200259 BitCount = 103 ID = 1138
  17.700437 1  512             Rx   d 4 00 00 00 00  Length = 166256 BitCount = 86 ID = 1298
  17.700673 1  472             Rx   d 6 74 B1 02 00 00 00  Length = 198259 BitCount = 102 ID = 1138
  17.750647 1  472             Rx   d 6 68 B3 02 00 00 00  Length = 198259 BitCount = 102 ID = 1138
  17.800639 1  512             Rx   d 4 00 00 00 00  Length = 166256 BitCount = 86 ID = 1298
  17.800844 1  472             Rx   d 6 5C B5 02 00 00 00  Length = 198259 BitCount = 102 ID = 1138
  17.850608 1  472             Rx   d 6 50 B7 02 00 00 00  Length = 200259 BitCount = 103 ID = 1138
  17.900554 1  512             Rx   d 4 00 00 00 00  Length = 166256 BitCount = 86 ID = 1298
  17.900758 1  472             Rx   d 6 44 B9 02 00 00 00  Length = 198259 BitCount = 102 ID = 1138
  17.950537 1  472             Rx   d 6 38 BB 02 00 00 00  Length = 200259 BitCount = 103 ID = 1138
  18.000593 1  512             Rx   d 4 00 00 00 00  Length = 166256 BitCount = 86 ID = 1298
  18.000799 1  472             Rx   d 6 2C BD 02 00 00 00  Length = 200259 BitCount = 103 ID = 1138
  18.050543 1  472             Rx   d 6 20 BF 02 00 00 00  Length = 202259 BitCount = 104 ID = 1138
  18.100500 1  512             Rx   d 4 00 00 00 00  Length = 166256 BitCount = 86 ID = 1298
  18.100710 1  472             Rx   d 6 14 C1 02 00 00 00  Length = 204259 BitCount = 105 ID = 1138
  18.150524 1  472             Rx   d 6 08 C3 02 00 00 00  Length = 200259 BitCount = 103 ID = 1138
  18.200438 1  512             Rx   d 4 00 00 00 00  Length = 166256 BitCount = 86 ID = 1298
  18.200645 1  472             Rx   d 6 FC C4 02 00 00 00  Length = 200259 BitCount = 103 ID = 1138
  18.250653 1  472             Rx   d 6 F0 C6 02 00 00 00  Length = 200259 BitCount = 103 ID = 1138
  18.300633 1  512             Rx   d 4 00 00 00 00  Length = 166256 BitCount = 86 ID = 1298
  18.300837 1  472             Rx   d 6 E4 C8 02 00 00 00  Length = 198259 BitCount = 102 ID = 1138
  18.350606 1  472             Rx   d 6 D8 CA 02 00 00 00  Length = 202259 BitCount = 104 ID = 1138
  18.400556 1  512             Rx   d 4 00 00 00 00  Length = 166256 BitCount = 86 ID = 1298
  18.400762 1  472             Rx   d 6 CC CC 02 00 00 00  Length = 200259 BitCount = 103 ID = 1138
  18.450546 1  472             Rx   d 6 C0 CE 02 00 00 00  Length = 200259 BitCount = 103 ID = 1138
  18.500521 1  512             Rx   d 4 00 00 00 00  Length = 166256 BitCount = 86 ID = 1298
  18.500731 1  472             Rx   d 6 B4 D0 02 00 00 00  Length = 204259 BitCount = 105 ID = 1138
  18.550521 1  472             Rx   d 6 A8 D2 02 00 00 00  Length = 198259 BitCount = 102 ID = 1138
  18.600485 1  512             Rx   d 4 00 00 00 00  Length = 166256 BitCount = 86 ID = 1298
  18.600690 1  472             Rx   d 6 9C D4 02 00 00 00  Length = 198259 BitCount = 102 ID = 1138
  18.650496 1  472             Rx   d 6 90 D6 02 00 00 00  Length = 198259 BitCount = 102 ID = 1138
  18.700440 1  512             Rx   d 4 00 00 00 00  Length = 166256 BitCount = 86 ID = 1298
  18.700646 1  472             Rx   d 6 84 D8 02 00 00 00  Length = 200259 BitCount = 103 ID = 1138
  18.750637 1  472             Rx   d 6 78 DA 02 00 00 00  Length = 200259 BitCount = 103 ID = 1138
  18.800633 1  512             Rx   d 4 00 00 00 00  Length = 166256 BitCount = 86 ID = 1298
  18.800837 1  472             Rx   d 6 6C DC 02 00 00 00  Length = 198259 BitCount = 102 ID = 1138
  18.850773 1  472             Rx   d 6 60 DE 02 00 00 00  Length = 202259 BitCount = 104 ID = 1138
  18.900790 1  512             Rx   d 4 00 00 00 00  Length = 166256 BitCount = 86 ID = 1298
  18.900996 1  472             Rx   d 6 54 E0 02 00 00 00  Length = 200259 BitCount = 103 ID = 1138
  18.950806 1  472             Rx   d 6 48 E2 02 00 00 00  Length = 198259 BitCount = 102 ID = 1138
  19.000632 1  512             Rx   d 4 00 00 00 00  Length = 166256 BitCount = 86 ID = 1298
  19.000837 1  472             Rx   d 6 3C E4 02 00 00 00  Length = 198259 BitCount = 102 ID = 1138
  19.050733 1  472             Rx   d 6 30 E6 02 00 00 00  Length = 198259 BitCount = 102 ID = 1138
  19.100697 1  512             Rx   d 4 00 00 00 00  Length = 166256 BitCount = 86 ID = 1298
  19.100901 1  472             Rx   d 6 24 E8 02 00 00 00  Length = 198259 BitCount = 102 ID = 1138
  19.150736 1  472             Rx   d 6 18 EA 02 00 00 00  Length = 198259 BitCount = 102 ID = 1138
  19.200628 1  512             Rx   d 4 00 00 00 00  Length = 166256 BitCount = 86 ID = 1298
  19.200834 1  472             Rx   d 6 0C EC 02 00 00 00  Length = 200259 BitCount = 103 ID = 1138
  19.250826 1  472             Rx   d 6 00 EE 02 00 00 00  Length = 200259 BitCount = 103 ID = 1138
  19.300713 1  512             Rx   d 4 00 00 00 00  Length = 166256 BitCount = 86 ID = 1298
  19.300919 1  472             Rx   d 6 F4 EF 02 00 00 00  Length = 200259 BitCount = 103 ID = 1138
  19.350945 1  472             Rx   d 6 E8 F1 02 00 00 00  Length = 200259 BitCount = 103 ID = 1138
  19.400859 1  512             Rx   d 4 00 00 00 00  Length = 166256 BitCount = 86 ID = 1298
  19.401068 1  472             Rx   d 6 DC F3 02 00 00 00  Length = 202259 BitCount = 104 ID = 1138
  19.450714 1  472             Rx   d 6 D0 F5 02 00 00 00  Length = 200259 BitCount = 103 ID = 1138
  19.500716 1  512             Rx   d 4 00 00 00 00  Length = 166256 BitCount = 86 ID = 1298
  19.500920 1  472             Rx   d 6 C4 F7 02 00 00 00  Length = 198259 BitCount = 102 ID = 1138
  19.550803 1  472             Rx   d 6 B8 F9 02 00 00 00  Length = 200259 BitCount = 103 ID = 1138
  19.600647 1  512             Rx   d 4 00 00 00 00  Length = 166256 BitCount = 86 ID = 1298
  19.600855 1  472             Rx   d 6 AC FB 02 00 00 00  Length = 202259 BitCount = 104 ID = 1138
  19.650651 1  472             Rx   d 6 A0 FD 02 00 00 00  Length = 204259 BitCount = 105 ID = 1138
  19.700778 1  512             Rx   d 4 00 00 00 00  Length = 166256 BitCount = 86 ID = 1298
  19.700986 1  472             Rx   d 6 94 FF 02 00 00 00  Length = 202259 BitCount = 104 ID = 1138
  19.750890 1  472             Rx   d 6 88 01 03 00 00 00  Length = 200259 BitCount = 103 ID = 1138
  19.800852 1  512             Rx   d 4 00 00 00 00  Length = 166256 BitCount = 86 ID = 1298
  19.801063 1  472             Rx   d 6 7C 03 03 00 00 00  Length = 204259 BitCount = 105 ID = 1138
  19.850829 1  472             Rx   d 6 70 05 03 00 00 00  Length = 198259 BitCount = 102 ID = 1138
  19.900791 1  512             Rx   d 4 00 00 00 00  Length = 166256 BitCount = 86 ID = 1298
  19.900995 1  472             Rx   d 6 64 07 03 00 00 00  Length = 198259 BitCount = 102 ID = 1138
  19.950762 1  472             Rx   d 6 58 09 03 00 00 00  Length = 198259 BitCount = 102 ID = 1138
  20.000772 1  512             Rx   d 4 00 00 00 00  Length = 166256 BitCount = 86 ID = 1298
  20.001034 1  472             Rx   d 6 4C 0B 03 00 00 00  Length = 198259 BitCount = 102 ID = 1138
  20.050598 1  472             Rx   d 6 40 0D 03 00 00 00  Length = 204259 BitCount = 105 ID = 1138
  20.100553 1  512             Rx   d 4 00 00 00 00  Length = 166256 BitCount = 86 ID = 1298
  20.100759 1  472             Rx   d 6 34 0F 03 00 00 00  Length = 200259 BitCount = 103 ID = 1138
  20.150657 1  472             Rx   d 6 28 11 03 00 00 00  Length = 198259 BitCount = 102 ID = 1138
  20.200649 1  512             Rx   d 4 00 00 00 01  Length = 166256 BitCount = 86 ID = 1298
  20.200856 1  472             Rx   d 6 1C 13 03 00 00 00  Length = 200259 BitCount = 103 ID = 1138
  20.250740 1  472             Rx   d 6 10 15 03 00 00 00  Length = 200259 BitCount = 103 ID = 1138
  20.300830 1  512             Rx   d 4 00 00 00 01  Length = 166256 BitCount = 86 ID = 1298
  20.301038 1  472             Rx   d 6 04 17 03 00 00 00  Length = 202259 BitCount = 104 ID = 1138
  20.350907 1  472             Rx   d 6 F8 18 03 00 00 00  Length = 202259 BitCount = 104 ID = 1138
  20.400909 1  512             Rx   d 4 00 00 00 01  Length = 166256 BitCount = 86 ID = 1298
  20.401131 1  472             Rx   d 6 EC 1A 03 00 00 00  Length = 202259 BitCount = 104 ID = 1138
  20.450751 1  472             Rx   d 6 E0 1C 03 00 00 00  Length = 200259 BitCount = 103 ID = 1138
  20.500574 1  512             Rx   d 4 00 00 00 01  Length = 166256 BitCount = 86 ID = 1298
  20.500780 1  472             Rx   d 6 D4 1E 03 00 00 00  Length = 200259 BitCount = 103 ID = 1138
  20.550752 1  472             Rx   d 6 C8 20 03 00 00 00  Length = 200259 BitCount = 103 ID = 1138
  20.600646 1  512             Rx   d 4 00 00 00 01  Length = 166256 BitCount = 86 ID = 1298
  20.600851 1  472             Rx   d 6 BC 22 03 00 00 00  Length = 198259 BitCount = 102 ID = 1138
  20.650757 1  472             Rx   d 6 B0 24 03 00 00 00  Length = 200259 BitCount = 103 ID = 1138
  20.700545 1  512             Rx   d 4 00 00 00 01  Length = 166256 BitCount = 86 ID = 1298
  20.700749 1  472             Rx   d 6 A4 26 03 00 00 00  Length = 198259 BitCount = 102 ID = 1138
  20.750900 1  472             Rx   d 6 98 28 03 00 00 00  Length = 202259 BitCount = 104 ID = 1138
  20.800856 1  512             Rx   d 4 00 00 00 01  Length = 166256 BitCount = 86 ID = 1298
  20.801060 1  472             Rx   d 6 8C 2A 03 00 00 00  Length = 198259 BitCount = 102 ID = 1138
  20.850854 1  472             Rx   d 6 80 2C 03 00 00 00  Length = 200259 BitCount = 103 ID = 1138
  20.900825 1  512             Rx   d 4 00 00 00 01  Length = 166256 BitCount = 86 ID = 1298
  20.901033 1  472             Rx   d 6 74 2E 03 00 00 00  Length = 202259 BitCount = 104 ID = 1138
  20.950795 1  472             Rx   d 6 68 30 03 00 00 00  Length = 202259 BitCount = 104 ID = 1138
  21.000735 1  512             Rx   d 4 00 00 00 01  Length = 166256 BitCount = 86 ID = 1298
  21.000940 1  472             Rx   d 6 5C 32 03 00 00 00  Length = 198259 BitCount = 102 ID = 1138
  21.050748 1  472             Rx   d 6 50 34 03 00 00 00  Length = 202259 BitCount = 104 ID = 1138
  21.100710 1  512             Rx   d 4 00 00 00 01  Length = 166256 BitCount = 86 ID = 1298
  21.100914 1  472             Rx   d 6 44 36 03 00 00 00  Length = 198259 BitCount = 102 ID = 1138
  21.150759 1  472             Rx   d 6 38 38 03 00 00 00  Length = 200259 BitCount = 103 ID = 1138
  21.200559 1  512             Rx   d 4 00 00 00 01  Length = 166256 BitCount = 86 ID = 1298
  21.200763 1  472             Rx   d 6 2C 3A 03 00 00 00  Length = 198259 BitCount = 102 ID = 1138
  21.250869 1  472             Rx   d 6 20 3C 03 00 00 00  Length = 198259 BitCount = 102 ID = 1138
  21.300732 1  512             Rx   d 4 00 00 00 01  Length = 166256 BitCount = 86 ID = 1298
  21.300936 1  472             Rx   d 6 14 3E 03 00 00 00  Length = 198259 BitCount = 102 ID = 1138
  21.350794 1  472             Rx   d 6 08 40 03 00 00 00  Length = 202259 BitCount = 104 ID = 1138
  21.400810 1  512             Rx   d 4 00 00 00 01  Length = 166256 BitCount = 86 ID = 1298
  21.401019 1  472             Rx   d 6 FC 41 03 00 00 00  Length = 202259 BitCount = 104 ID = 1138
  21.450863 1  472             Rx   d 6 F0 43 03 00 00 00  Length = 200259 BitCount = 103 ID = 1138
  21.500571 1  512             Rx   d 4 00 00 00 01  Length = 166256 BitCount = 86 ID = 1298
  21.500777 1  472             Rx   d 6 E4 45 03 00 00 00  Length = 200259 BitCount = 103 ID = 1138
  21.550692 1  472             Rx   d 6 D8 47 03 00 00 00  Length = 200259 BitCount = 103 ID = 1138
  21.600682 1  512             Rx   d 4 00 00 00 01  Length = 166256 BitCount = 86 ID = 1298
  21.600886 1  472             Rx   d 6 CC 49 03 00 00 00  Length = 198259 BitCount = 102 ID = 1138
  21.650600 1  472             Rx   d 6 C0 4B 03 00 00 00  Length = 198259 BitCount = 102 ID = 1138
  21.700601 1  512             Rx   d 4 00 00 00 01  Length = 166256 BitCount = 86 ID = 1298
  21.700803 1  472             Rx   d 6 B4 4D 03 00 00 00  Length = 196259 BitCount = 101 ID = 1138
  21.750759 1  472             Rx   d 6 A8 4F 03 00 00 00  Length = 196259 BitCount = 101 ID = 1138
  21.800831 1  512             Rx   d 4 00 00 00 01  Length = 166256 BitCount = 86 ID = 1298
  21.801036 1  472             Rx   d 6 9C 51 03 00 00 00  Length = 198259 BitCount = 102 ID = 1138
  21.850850 1  472             Rx   d 6 90 53 03 00 00 00  Length = 198259 BitCount = 102 ID = 1138
  21.900646 1  512             Rx   d 4 00 00 00 01  Length = 166256 BitCount = 86 ID = 1298
  21.900848 1  472             Rx   d 6 84 55 03 00 00 00  Length = 196259 BitCount = 101 ID = 1138
  21.950817 1  472             Rx   d 6 78 57 03 00 00 00  Length = 198259 BitCount = 102 ID = 1138
  22.000735 1  512             Rx   d 4 00 00 00 01  Length = 166256 BitCount = 86 ID = 1298
  22.000939 1  472             Rx   d 6 6C 59 03 00 00 00  Length = 198259 BitCount = 102 ID = 1138
  22.050807 1  472             Rx   d 6 60 5B 03 00 00 00  Length = 198259 BitCount = 102 ID = 1138
  22.100672 1  512             Rx   d 4 00 00 00 01  Length = 166256 BitCount = 86 ID = 1298
  22.100874 1  472             Rx   d 6 54 5D 03 00 00 00  Length = 196259 BitCount = 101 ID = 1138
  22.150730 1  472             Rx   d 6 48 5F 03 00 00 00  Length = 200259 BitCount = 103 ID = 1138
  22.200654 1  512             Rx   d 4 00 00 00 01  Length = 166256 BitCount = 86 ID = 1298
  22.200859 1  472             Rx   d 6 3C 61 03 00 00 00  Length = 198259 BitCount = 102 ID = 1138
  22.250735 1  472             Rx   d 6 30 63 03 00 00 00  Length = 200259 BitCount = 103 ID = 1138
  22.300781 1  512             Rx   d 4 00 00 00 01  Length = 166256 BitCount = 86 ID = 1298
  22.300985 1  472             Rx   d 6 24 65 03 00 00 00  Length = 198259 BitCount = 102 ID = 1138
  22.350870 1  472             Rx   d 6 18 67 03 00 00 00  Length = 200259 BitCount = 103 ID = 1138
  22.400588 1  512             Rx   d 4 00 00 00 01  Length = 166256 BitCount = 86 ID = 1298
  22.400794 1  472             Rx   d 6 0C 69 03 00 00 00  Length = 200259 BitCount = 103 ID = 1138
  22.450574 1  472             Rx   d 6 00 6B 03 00 00 00  Length = 202259 BitCount = 104 ID = 1138
  22.500517 1  512             Rx   d 4 00 00 00 01  Length = 166256 BitCount = 86 ID = 1298
  22.500719 1  472             Rx   d 6 F4 6C 03 00 00 00  Length = 196259 BitCount = 101 ID = 1138
  22.550531 1  472             Rx   d 6 E8 6E 03 00 00 00  Length = 196259 BitCount = 101 ID = 1138
  22.600471 1  512             Rx   d 4 00 00 00 01  Length = 166256 BitCount = 86 ID = 1298
  22.600678 1  472             Rx   d 6 DC 70 03 00 00 00  Length = 200259 BitCount = 103 ID = 1138
  22.650448 1  472             Rx   d 6 D0 72 03 00 00 00  Length = 200259 BitCount = 103 ID = 1138
  22.700566 1  512             Rx   d 4 00 00 00 01  Length = 166256 BitCount = 86 ID = 1298
  22.700768 1  472             Rx   d 6 C4 74 03 00 00 00  Length = 196259 BitCount = 101 ID = 1138
  22.751053 1  472             Rx   d 6 B8 76 03 00 00 00  Length = 196259 BitCount = 101 ID = 1138
  22.800807 1  512             Rx   d 4 00 00 00 01  Length = 166256 BitCount = 86 ID = 1298
  22.801011 1  472             Rx   d 6 AC 78 03 00 00 00  Length = 198259 BitCount = 102 ID = 1138
  22.850941 1  472             Rx   d 6 A0 7A 03 00 00 00  Length = 200259 BitCount = 103 ID = 1138
  22.900798 1  512             Rx   d 4 00 00 00 01  Length = 166256 BitCount = 86 ID = 1298
  22.901004 1  472             Rx   d 6 94 7C 03 00 00 00  Length = 200259 BitCount = 103 ID = 1138
  22.950886 1  472             Rx   d 6 88 7E 03 00 00 00  Length = 200259 BitCount = 103 ID = 1138
  23.000768 1  512             Rx   d 4 00 00 00 01  Length = 166256 BitCount = 86 ID = 1298
  23.000975 1  472             Rx   d 6 7C 80 03 00 00 00  Length = 200259 BitCount = 103 ID = 1138
  23.050769 1  472             Rx   d 6 70 82 03 00 00 00  Length = 200259 BitCount = 103 ID = 1138
  23.100747 1  512             Rx   d 4 00 00 00 01  Length = 166256 BitCount = 86 ID = 1298
  23.100953 1  472             Rx   d 6 64 84 03 00 00 00  Length = 200259 BitCount = 103 ID = 1138
  23.150648 1  472             Rx   d 6 58 86 03 00 00 00  Length = 198259 BitCount = 102 ID = 1138
  23.200698 1  512             Rx   d 4 00 00 00 01  Length = 166256 BitCount = 86 ID = 1298
  23.200902 1  472             Rx   d 6 4C 88 03 00 00 00  Length = 198259 BitCount = 102 ID = 1138
  23.250864 1  472             Rx   d 6 40 8A 03 00 00 00  Length = 198259 BitCount = 102 ID = 1138
  23.300859 1  512             Rx   d 4 00 00 00 01  Length = 166256 BitCount = 86 ID = 1298
  23.301061 1  472             Rx   d 6 34 8C 03 00 00 00  Length = 196259 BitCount = 101 ID = 1138
  23.350851 1  472             Rx   d 6 28 8E 03 00 00 00  Length = 198259 BitCount = 102 ID = 1138
  23.400701 1  512             Rx   d 4 00 00 00 01  Length = 166256 BitCount = 86 ID = 1298
  23.400908 1  472             Rx   d 6 1C 90 03 00 00 00  Length = 200259 BitCount = 103 ID = 1138
  23.450760 1  472             Rx   d 6 10 92 03 00 00 00  Length = 196259 BitCount = 101 ID = 1138
  23.500684 1  512             Rx   d 4 00 00 00 01  Length = 166256 BitCount = 86 ID = 1298
  23.500888 1  472             Rx   d 6 04 94 03 00 00 00  Length = 198259 BitCount = 102 ID = 1138
  23.550771 1  472             Rx   d 6 F8 95 03 00 00 00  Length = 198259 BitCount = 102 ID = 1138
  23.600741 1  512             Rx   d 4 00 00 00 01  Length = 166256 BitCount = 86 ID = 1298
  23.600943 1  472             Rx   d 6 EC 97 03 00 00 00  Length = 196259 BitCount = 101 ID = 1138
  23.650653 1  472             Rx   d 6 E0 99 03 00 00 00  Length = 200259 BitCount = 103 ID = 1138
  23.700678 1  512             Rx   d 4 00 00 00 01  Length = 166256 BitCount = 86 ID = 1298
  23.700884 1  472             Rx   d 6 D4 9B 03 00 00 00  Length = 200259 BitCount = 103 ID = 1138
  23.750884 1  472             Rx   d 6 C8 9D 03 00 00 00  Length = 198259 BitCount = 102 ID = 1138
  23.800856 1  512             Rx   d 4 00 00 00 01  Length = 166256 BitCount = 86 ID = 1298
  23.801063 1  472             Rx   d 6 BC 9F 03 00 00 00  Length = 200259 BitCount = 103 ID = 1138
  23.850659 1  472             Rx   d 6 B0 A1 03 00 00 00  Length = 198259 BitCount = 102 ID = 1138
  23.900813 1  512             Rx   d 4 00 00 00 01  Length = 166256 BitCount = 86 ID = 1298
  23.901015 1  472             Rx   d 6 A4 A3 03 00 00 00  Length = 196259 BitCount = 101 ID = 1138
  23.950768 1  472             Rx   d 6 98 A5 03 00 00 00  Length = 196259 BitCount = 101 ID = 1138
  24.000784 1  512             Rx   d 4 00 00 00 01  Length = 166256 BitCount = 86 ID = 1298
  24.000988 1  472             Rx   d 6 8C A7 03 00 00 00  Length = 198259 BitCount = 102 ID = 1138
  24.050772 1  472             Rx   d 6 80 A9 03 00 00 00  Length = 200259 BitCount = 103 ID = 1138
  24.100691 1  512             Rx   d 4 00 00 00 01  Length = 166256 BitCount = 86 ID = 1298
  24.100895 1  472             Rx   d 6 74 AB 03 00 00 00  Length = 198259 BitCount = 102 ID = 1138
  24.150725 1  472             Rx   d 6 68 AD 03 00 00 00  Length = 196259 BitCount = 101 ID = 1138
  24.200705 1  512             Rx   d 4 00 00 00 01  Length = 166256 BitCount = 86 ID = 1298
  24.200910 1  472             Rx   d 6 5C AF 03 00 00 00  Length = 198259 BitCount = 102 ID = 1138
  24.251020 1  472             Rx   d 6 50 B1 03 00 00 00  Length = 200259 BitCount = 103 ID = 1138
  24.300822 1  512             Rx   d 4 00 00 00 01  Length = 166256 BitCount = 86 ID = 1298
  24.301024 1  472             Rx   d 6 44 B3 03 00 00 00  Length = 196259 BitCount = 101 ID = 1138
  24.350847 1  472             Rx   d 6 38 B5 03 00 00 00  Length = 196259 BitCount = 101 ID = 1138
  24.400691 1  512             Rx   d 4 00 00 00 01  Length = 166256 BitCount = 86 ID = 1298
  24.400895 1  472             Rx   d 6 2C B7 03 00 00 00  Length = 198259 BitCount = 102 ID = 1138
  24.450695 1  472             Rx   d 6 20 B9 03 00 00 00  Length = 200259 BitCount = 103 ID = 1138
  24.500656 1  512             Rx   d 4 00 00 00 01  Length = 166256 BitCount = 86 ID = 1298
  24.500860 1  472             Rx   d 6 14 BB 03 00 00 00  Length = 198259 BitCount = 102 ID = 1138
  24.550768 1  472             Rx   d 6 08 BD 03 00 00 00  Length = 202259 BitCount = 104 ID = 1138
  24.600718 1  512             Rx   d 4 00 00 00 01  Length = 166256 BitCount = 86 ID = 1298
  24.600929 1  472             Rx   d 6 FC BE 03 00 00 00  Length = 204259 BitCount = 105 ID = 1138
  24.650667 1  472             Rx   d 6 F0 C0 03 00 00 00  Length = 200259 BitCount = 103 ID = 1138
  24.700669 1  512             Rx   d 4 00 00 00 01  Length = 166256 BitCount = 86 ID = 1298
  24.700871 1  472             Rx   d 6 E4 C2 03 00 00 00  Length = 196259 BitCount = 101 ID = 1138
  24.750730 1  472             Rx   d 6 D8 C4 03 00 00 00  Length = 196259 BitCount = 101 ID = 1138
  24.800796 1  512             Rx   d 4 00 00 00 01  Length = 166256 BitCount = 86 ID = 1298
  24.800998 1  472             Rx   d 6 CC C6 03 00 00 00  Length = 196259 BitCount = 101 ID = 1138
  24.850852 1  472             Rx   d 6 C0 C8 03 00 00 00  Length = 202259 BitCount = 104 ID = 1138
  24.900831 1  512             Rx   d 4 00 00 00 01  Length = 166256 BitCount = 86 ID = 1298
  24.901047 1  472             Rx   d 6 B4 CA 03 00 00 00  Length = 198259 BitCount = 102 ID = 1138
  24.950827 1  472             Rx   d 6 A8 CC 03 00 00 00  Length = 198259 BitCount = 102 ID = 1138
  25.000649 1  512             Rx   d 4 00 00 00 01  Length = 166256 BitCount = 86 ID = 1298
  25.000856 1  472             Rx   d 6 9C CE 03 00 00 00  Length = 200259 BitCount = 103 ID = 1138
  25.050768 1  472             Rx   d 6 90 D0 03 00 00 00  Length = 200259 BitCount = 103 ID = 1138
  25.100908 1  512             Rx   d 4 00 00 00 01  Length = 166256 BitCount = 86 ID = 1298
  25.101146 1  472             Rx   d 6 84 D2 03 00 00 00  Length = 198259 BitCount = 102 ID = 1138
  25.150675 1  472             Rx   d 6 78 D4 03 00 00 00  Length = 196259 BitCount = 101 ID = 1138
  25.200625 1  512             Rx   d 4 00 00 00 01  Length = 166256 BitCount = 86 ID = 1298
  25.200829 1  472             Rx   d 6 6C D6 03 00 00 00  Length = 198259 BitCount = 102 ID = 1138
  25.250733 1  472             Rx   d 6 60 D8 03 00 00 00  Length = 200259 BitCount = 103 ID = 1138
  25.300808 1  512             Rx   d 4 00 00 00 01  Length = 166256 BitCount = 86 ID = 1298
  25.301012 1  472             Rx   d 6 54 DA 03 00 00 00  Length = 198259 BitCount = 102 ID = 1138
  25.350860 1  472             Rx   d 6 48 DC 03 00 00 00  Length = 198259 BitCount = 102 ID = 1138
  25.400696 1  512             Rx   d 4 00 00 00 01  Length = 166256 BitCount = 86 ID = 1298
  25.400903 1  472             Rx   d 6 3C DE 03 00 00 00  Length = 200259 BitCount = 103 ID = 1138
  25.450781 1  472             Rx   d 6 30 E0 03 00 00 00  Length = 198259 BitCount = 102 ID = 1138
  25.500633 1  512             Rx   d 4 00 00 00 01  Length = 166256 BitCount = 86 ID = 1298
  25.500837 1  472             Rx   d 6 24 E2 03 00 00 00  Length = 198259 BitCount = 102 ID = 1138
  25.550570 1  472             Rx   d 6 18 E4 03 00 00 00  Length = 198259 BitCount = 102 ID = 1138
  25.600744 1  512             Rx   d 4 00 00 00 01  Length = 166256 BitCount = 86 ID = 1298
  25.600948 1  472             Rx   d 6 0C E6 03 00 00 00  Length = 198259 BitCount = 102 ID = 1138
  25.650688 1  472             Rx   d 6 00 E8 03 00 00 00  Length = 202259 BitCount = 104 ID = 1138
  25.700801 1  512             Rx   d 4 00 00 00 01  Length = 166256 BitCount = 86 ID = 1298
  25.701019 1  472             Rx   d 6 F4 E9 03 00 00 00  Length = 200259 BitCount = 103 ID = 1138
  25.750855 1  472             Rx   d 6 E8 EB 03 00 00 00  Length = 200259 BitCount = 103 ID = 1138
  25.800863 1  512             Rx   d 4 00 00 00 01  Length = 166256 BitCount = 86 ID = 1298
  25.801070 1  472             Rx   d 6 DC ED 03 00 00 00  Length = 200259 BitCount = 103 ID = 1138
  25.850854 1  472             Rx   d 6 D0 EF 03 00 00 00  Length = 198259 BitCount = 102 ID = 1138
  25.900706 1  512             Rx   d 4 00 00 00 01  Length = 166256 BitCount = 86 ID = 1298
  25.900910 1  472             Rx   d 6 C4 F1 03 00 00 00  Length = 198259 BitCount = 102 ID = 1138
  25.950801 1  472             Rx   d 6 B8 F3 03 00 00 00  Length = 198259 BitCount = 102 ID = 1138
  26.000751 1  512             Rx   d 4 00 00 00 01  Length = 166256 BitCount = 86 ID = 1298
  26.000955 1  472             Rx   d 6 AC F5 03 00 00 00  Length = 198259 BitCount = 102 ID = 1138
  26.050801 1  472             Rx   d 6 A0 F7 03 00 00 00  Length = 202259 BitCount = 104 ID = 1138
  26.100768 1  512             Rx   d 4 00 00 00 01  Length = 166256 BitCount = 86 ID = 1298
  26.100974 1  472             Rx   d 6 94 F9 03 00 00 00  Length = 200259 BitCount = 103 ID = 1138
  26.150596 1  472             Rx   d 6 88 FB 03 00 00 00  Length = 198259 BitCount = 102 ID = 1138
  26.200684 1  512             Rx   d 4 00 00 00 01  Length = 166256 BitCount = 86 ID = 1298
  26.200895 1  472             Rx   d 6 7C FD 03 00 00 00  Length = 204259 BitCount = 105 ID = 1138
  26.250839 1  472             Rx   d 6 70 FF 03 00 00 00  Length = 200259 BitCount = 103 ID = 1138
  26.300837 1  512             Rx   d 4 00 00 00 01  Length = 166256 BitCount = 86 ID = 1298
  26.301045 1  472             Rx   d 6 64 01 04 00 00 00  Length = 202259 BitCount = 104 ID = 1138
  26.350890 1  472             Rx   d 6 58 03 04 00 00 00  Length = 202259 BitCount = 104 ID = 1138
  26.400852 1  512             Rx   d 4 00 00 00 01  Length = 166256 BitCount = 86 ID = 1298
  26.401058 1  472             Rx   d 6 4C 05 04 00 00 00  Length = 200259 BitCount = 103 ID = 1138
  26.450684 1  472             Rx   d 6 40 07 04 00 00 00  Length = 204259 BitCount = 105 ID = 1138
  26.500771 1  512             Rx   d 4 00 00 00 01  Length = 166256 BitCount = 86 ID = 1298
  26.500977 1  472             Rx   d 6 34 09 04 00 00 00  Length = 200259 BitCount = 103 ID = 1138
  26.550785 1  472             Rx   d 6 28 0B 04 00 00 00  Length = 200259 BitCount = 103 ID = 1138
  26.600731 1  512             Rx   d 4 00 00 00 01  Length = 166256 BitCount = 86 ID = 1298
  26.600940 1  472             Rx   d 6 1C 0D 04 00 00 00  Length = 202259 BitCount = 104 ID = 1138
  26.650740 1  472             Rx   d 6 10 0F 04 00 00 00  Length = 204259 BitCount = 105 ID = 1138
  26.700642 1  512             Rx   d 4 00 00 00 01  Length = 166256 BitCount = 86 ID = 1298
  26.700850 1  472             Rx   d 6 04 11 04 00 00 00  Length = 202259 BitCount = 104 ID = 1138
  26.750775 1  472             Rx   d 6 F8 12 04 00 00 00  Length = 202259 BitCount = 104 ID = 1138
  26.800843 1  512             Rx   d 4 00 00 00 01  Length = 166256 BitCount = 86 ID = 1298
  26.801049 1  472             Rx   d 6 EC 14 04 00 00 00  Length = 200259 BitCount = 103 ID = 1138
  26.850909 1  472             Rx   d 6 E0 16 04 00 00 00  Length = 200259 BitCount = 103 ID = 1138
  26.900732 1  512             Rx   d 4 00 00 00 01  Length = 166256 BitCount = 86 ID = 1298
  26.900938 1  472             Rx   d 6 D4 18 04 00 00 00  Length = 200259 BitCount = 103 ID = 1138
  26.950650 1  472             Rx   d 6 C8 1A 04 00 00 00  Length = 200259 BitCount = 103 ID = 1138
  27.000720 1  512             Rx   d 4 00 00 00 01  Length = 166256 BitCount = 86 ID = 1298
  27.000929 1  472             Rx   d 6 BC 1C 04 00 00 00  Length = 202259 BitCount = 104 ID = 1138
  27.050721 1  472             Rx   d 6 B0 1E 04 00 00 00  Length = 200259 BitCount = 103 ID = 1138
  27.100753 1  512             Rx   d 4 00 00 00 01  Length = 166256 BitCount = 86 ID = 1298
  27.100959 1  472             Rx   d 6 A4 20 04 00 00 00  Length = 200259 BitCount = 103 ID = 1138
  27.150636 1  472             Rx   d 6 98 22 04 00 00 00  Length = 200259 BitCount = 103 ID = 1138
  27.200676 1  512             Rx   d 4 00 00 00 01  Length = 166256 BitCount = 86 ID = 1298
  27.200882 1  472             Rx   d 6 8C 24 04 00 00 00  Length = 200259 BitCount = 103 ID = 1138
  27.250724 1  472             Rx   d 6 80 26 04 00 00 00  Length = 202259 BitCount = 104 ID = 1138
  27.300839 1  512             Rx   d 4 00 00 00 01  Length = 166256 BitCount = 86 ID = 1298
  27.301043 1  472             Rx   d 6 74 28 04 00 00 00  Length = 198259 BitCount = 102 ID = 1138
  27.350853 1  472             Rx   d 6 68 2A 04 00 00 00  Length = 202259 BitCount = 104 ID = 1138
  27.400657 1  512             Rx   d 4 00 00 00 01  Length = 166256 BitCount = 86 ID = 1298
  27.400864 1  472             Rx   d 6 5C 2C 04 00 00 00  Length = 200259 BitCount = 103 ID = 1138
  27.450712 1  472             Rx   d 6 50 2E 04 00 00 00  Length = 200259 BitCount = 103 ID = 1138
  27.500710 1  512             Rx   d 4 00 00 00 01  Length = 166256 BitCount = 86 ID = 1298
  27.500914 1  472             Rx   d 6 44 30 04 00 00 00  Length = 198259 BitCount = 102 ID = 1138
  27.550801 1  472             Rx   d 6 38 32 04 00 00 00  Length = 202259 BitCount = 104 ID = 1138
  27.600629 1  512             Rx   d 4 00 00 00 01  Length = 166256 BitCount = 86 ID = 1298
  27.600833 1  472             Rx   d 6 2C 34 04 00 00 00  Length = 198259 BitCount = 102 ID = 1138
  27.650695 1  472             Rx   d 6 20 36 04 00 00 00  Length = 202259 BitCount = 104 ID = 1138
  27.700734 1  512             Rx   d 4 00 00 00 01  Length = 166256 BitCount = 86 ID = 1298
  27.700940 1  472             Rx   d 6 14 38 04 00 00 00  Length = 200259 BitCount = 103 ID = 1138
  27.750854 1  472             Rx   d 6 08 3A 04 00 00 00  Length = 202259 BitCount = 104 ID = 1138
  27.800836 1  512             Rx   d 4 00 00 00 01  Length = 166256 BitCount = 86 ID = 1298
  27.801043 1  472             Rx   d 6 FC 3B 04 00 00 00  Length = 200259 BitCount = 103 ID = 1138
  27.850833 1  472             Rx   d 6 F0 3D 04 00 00 00  Length = 200259 BitCount = 103 ID = 1138
  27.900931 1  512             Rx   d 4 00 00 00 01  Length = 166256 BitCount = 86 ID = 1298
  27.901137 1  472             Rx   d 6 E4 3F 04 00 00 00  Length = 200259 BitCount = 103 ID = 1138
  27.950774 1  472             Rx   d 6 D8 41 04 00 00 00  Length = 200259 BitCount = 103 ID = 1138
  28.000742 1  512             Rx   d 4 00 00 00 01  Length = 166256 BitCount = 86 ID = 1298
  28.000946 1  472             Rx   d 6 CC 43 04 00 00 00  Length = 198259 BitCount = 102 ID = 1138
  28.050734 1  472             Rx   d 6 C0 45 04 00 00 00  Length = 200259 BitCount = 103 ID = 1138
  28.100737 1  512             Rx   d 4 00 00 00 01  Length = 166256 BitCount = 86 ID = 1298
  28.100941 1  472             Rx   d 6 B4 47 04 00 00 00  Length = 198259 BitCount = 102 ID = 1138
  28.150647 1  472             Rx   d 6 A8 49 04 00 00 00  Length = 198259 BitCount = 102 ID = 1138
  28.200675 1  512             Rx   d 4 00 00 00 01  Length = 166256 BitCount = 86 ID = 1298
  28.200882 1  472             Rx   d 6 9C 4B 04 00 00 00  Length = 200259 BitCount = 103 ID = 1138
  28.250752 1  472             Rx   d 6 90 4D 04 00 00 00  Length = 200259 BitCount = 103 ID = 1138
  28.300782 1  512             Rx   d 4 00 00 00 01  Length = 166256 BitCount = 86 ID = 1298
  28.300988 1  472             Rx   d 6 84 4F 04 00 00 00  Length = 200259 BitCount = 103 ID = 1138
  28.350849 1  472             Rx   d 6 78 51 04 00 00 00  Length = 202259 BitCount = 104 ID = 1138
  28.400751 1  512             Rx   d 4 00 00 00 01  Length = 166256 BitCount = 86 ID = 1298
  28.400955 1  472             Rx   d 6 6C 53 04 00 00 00  Length = 198259 BitCount = 102 ID = 1138
  28.450879 1  472             Rx   d 6 60 55 04 00 00 00  Length = 200259 BitCount = 103 ID = 1138
  28.500714 1  512             Rx   d 4 00 00 00 01  Length = 166256 BitCount = 86 ID = 1298
  28.500918 1  472             Rx   d 6 54 57 04 00 00 00  Length = 198259 BitCount = 102 ID = 1138
  28.550752 1  472             Rx   d 6 48 59 04 00 00 00  Length = 198259 BitCount = 102 ID = 1138
  28.600734 1  512             Rx   d 4 00 00 00 01  Length = 166256 BitCount = 86 ID = 1298
  28.600939 1  472             Rx   d 6 3C 5B 04 00 00 00  Length = 198259 BitCount = 102 ID = 1138
  28.650777 1  472             Rx   d 6 30 5D 04 00 00 00  Length = 200259 BitCount = 103 ID = 1138
  28.700615 1  512             Rx   d 4 00 00 00 01  Length = 166256 BitCount = 86 ID = 1298
  28.700821 1  472             Rx   d 6 24 5F 04 00 00 00  Length = 200259 BitCount = 103 ID = 1138
  28.750910 1  472             Rx   d 6 18 61 04 00 00 00  Length = 198259 BitCount = 102 ID = 1138
  28.800882 1  512             Rx   d 4 00 00 00 01  Length = 166256 BitCount = 86 ID = 1298
  28.801090 1  472             Rx   d 6 0C 63 04 00 00 00  Length = 202259 BitCount = 104 ID = 1138
  28.850854 1  472             Rx   d 6 00 65 04 00 00 00  Length = 204259 BitCount = 105 ID = 1138
  28.900847 1  512             Rx   d 4 00 00 00 01  Length = 166256 BitCount = 86 ID = 1298
  28.901053 1  472             Rx   d 6 F4 66 04 00 00 00  Length = 200259 BitCount = 103 ID = 1138
  28.950799 1  472             Rx   d 6 E8 68 04 00 00 00  Length = 198259 BitCount = 102 ID = 1138
  29.000587 1  512             Rx   d 4 00 00 00 01  Length = 166256 BitCount = 86 ID = 1298
  29.000794 1  472             Rx   d 6 DC 6A 04 00 00 00  Length = 200259 BitCount = 103 ID = 1138
  29.050758 1  472             Rx   d 6 D0 6C 04 00 00 00  Length = 202259 BitCount = 104 ID = 1138
  29.100806 1  512             Rx   d 4 00 00 00 01  Length = 166256 BitCount = 86 ID = 1298
  29.101010 1  472             Rx   d 6 C4 6E 04 00 00 00  Length = 198259 BitCount = 102 ID = 1138
  29.150643 1  472             Rx   d 6 B8 70 04 00 00 00  Length = 200259 BitCount = 103 ID = 1138
  29.200729 1  512             Rx   d 4 00 00 00 01  Length = 166256 BitCount = 86 ID = 1298
  29.200935 1  472             Rx   d 6 AC 72 04 00 00 00  Length = 200259 BitCount = 103 ID = 1138
  29.250853 1  472             Rx   d 6 A0 74 04 00 00 00  Length = 200259 BitCount = 103 ID = 1138
  29.300794 1  512             Rx   d 4 00 00 00 01  Length = 166256 BitCount = 86 ID = 1298
  29.301000 1  472             Rx   d 6 94 76 04 00 00 00  Length = 200259 BitCount = 103 ID = 1138
  29.350680 1  472             Rx   d 6 88 78 04 00 00 00  Length = 198259 BitCount = 102 ID = 1138
  29.400806 1  512             Rx   d 4 00 00 00 01  Length = 166256 BitCount = 86 ID = 1298
  29.401015 1  472             Rx   d 6 7C 7A 04 00 00 00  Length = 202259 BitCount = 104 ID = 1138
  29.450763 1  472             Rx   d 6 70 7C 04 00 00 00  Length = 204259 BitCount = 105 ID = 1138
  29.500635 1  512             Rx   d 4 00 00 00 01  Length = 166256 BitCount = 86 ID = 1298
  29.500841 1  472             Rx   d 6 64 7E 04 00 00 00  Length = 200259 BitCount = 103 ID = 1138
  29.550700 1  472             Rx   d 6 58 80 04 00 00 00  Length = 200259 BitCount = 103 ID = 1138
  29.600700 1  512             Rx   d 4 00 00 00 01  Length = 166256 BitCount = 86 ID = 1298
  29.600908 1  472             Rx   d 6 4C 82 04 00 00 00  Length = 202259 BitCount = 104 ID = 1138
  29.650658 1  472             Rx   d 6 40 84 04 00 00 00  Length = 200259 BitCount = 103 ID = 1138
  29.700677 1  512             Rx   d 4 00 00 00 01  Length = 166256 BitCount = 86 ID = 1298
  29.700881 1  472             Rx   d 6 34 86 04 00 00 00  Length = 198259 BitCount = 102 ID = 1138
  29.750785 1  472             Rx   d 6 28 88 04 00 00 00  Length = 200259 BitCount = 103 ID = 1138
  29.800831 1  512             Rx   d 4 00 00 00 01  Length = 166256 BitCount = 86 ID = 1298
  29.801036 1  472             Rx   d 6 1C 8A 04 00 00 00  Length = 198259 BitCount = 102 ID = 1138
  29.850848 1  472             Rx   d 6 10 8C 04 00 00 00  Length = 198259 BitCount = 102 ID = 1138
  29.900658 1  512             Rx   d 4 00 00 00 01  Length = 166256 BitCount = 86 ID = 1298
  29.900866 1  472             Rx   d 6 04 8E 04 00 00 00  Length = 202259 BitCount = 104 ID = 1138
  29.950725 1  472             Rx   d 6 F8 8F 04 00 00 00  Length = 200259 BitCount = 103 ID = 1138
  30.000615 1  512             Rx   d 4 00 00 00 01  Length = 166256 BitCount = 86 ID = 1298
  30.000821 1  472             Rx   d 6 EC 91 04 00 00 00  Length = 200259 BitCount = 103 ID = 1138
  30.050809 1  472             Rx   d 6 E0 93 04 00 00 00  Length = 200259 BitCount = 103 ID = 1138
  30.100874 1  512             Rx   d 4 00 00 00 01  Length = 166256 BitCount = 86 ID = 1298
  30.101094 1  472             Rx   d 6 D4 95 04 00 00 00  Length = 200259 BitCount = 103 ID = 1138
  30.150784 1  472             Rx   d 6 C8 97 04 00 00 00  Length = 202259 BitCount = 104 ID = 1138
  30.200672 1  512             Rx   d 4 00 00 00 01  Length = 166256 BitCount = 86 ID = 1298
  30.200879 1  472             Rx   d 6 BC 99 04 00 00 00  Length = 200259 BitCount = 103 ID = 1138
  30.250889 1  472             Rx   d 6 B0 9B 04 00 00 00  Length = 202259 BitCount = 104 ID = 1138
  30.300819 1  512             Rx   d 4 00 00 00 01  Length = 166256 BitCount = 86 ID = 1298
  30.301023 1  472             Rx   d 6 A4 9D 04 00 00 00  Length = 198259 BitCount = 102 ID = 1138
  30.350892 1  472             Rx   d 6 98 9F 04 00 00 00  Length = 202259 BitCount = 104 ID = 1138
  30.400686 1  512             Rx   d 4 00 00 00 01  Length = 166256 BitCount = 86 ID = 1298
  30.400890 1  472             Rx   d 6 8C A1 04 00 00 00  Length = 198259 BitCount = 102 ID = 1138
  30.450728 1  472             Rx   d 6 80 A3 04 00 00 00  Length = 202259 BitCount = 104 ID = 1138
  30.500513 1  512             Rx   d 4 00 00 00 01  Length = 166256 BitCount = 86 ID = 1298
  30.500719 1  472             Rx   d 6 74 A5 04 00 00 00  Length = 200259 BitCount = 103 ID = 1138
  30.550727 1  472             Rx   d 6 68 A7 04 00 00 00  Length = 198259 BitCount = 102 ID = 1138
  30.600725 1  512             Rx   d 4 00 00 00 01  Length = 166256 BitCount = 86 ID = 1298
  30.600930 1  472             Rx   d 6 5C A9 04 00 00 00  Length = 198259 BitCount = 102 ID = 1138
  30.650644 1  472             Rx   d 6 50 AB 04 00 00 00  Length = 198259 BitCount = 102 ID = 1138
  30.700660 1  512             Rx   d 4 00 00 00 01  Length = 166256 BitCount = 86 ID = 1298
  30.700864 1  472             Rx   d 6 44 AD 04 00 00 00  Length = 198259 BitCount = 102 ID = 1138
  30.750871 1  472             Rx   d 6 38 AF 04 00 00 00  Length = 198259 BitCount = 102 ID = 1138
  30.800843 1  512             Rx   d 4 00 00 00 01  Length = 166256 BitCount = 86 ID = 1298
  30.801047 1  472             Rx   d 6 2C B1 04 00 00 00  Length = 198259 BitCount = 102 ID = 1138
  30.850825 1  472             Rx   d 6 20 B3 04 00 00 00  Length = 202259 BitCount = 104 ID = 1138
  30.900798 1  512             Rx   d 4 00 00 00 01  Length = 166256 BitCount = 86 ID = 1298
  30.901002 1  472             Rx   d 6 14 B5 04 00 00 00  Length = 198259 BitCount = 102 ID = 1138
  30.950858 1  472             Rx   d 6 08 B7 04 00 00 00  Length = 200259 BitCount = 103 ID = 1138
  31.000836 1  512             Rx   d 4 00 00 00 01  Length = 166256 BitCount = 86 ID = 1298
  31.001043 1  472             Rx   d 6 FC B8 04 00 00 00  Length = 200259 BitCount = 103 ID = 1138
  31.050777 1  472             Rx   d 6 F0 BA 04 00 00 00  Length = 200259 BitCount = 103 ID = 1138
  31.100553 1  512             Rx   d 4 00 00 00 01  Length = 166256 BitCount = 86 ID = 1298
  31.100759 1  472             Rx   d 6 E4 BC 04 00 00 00  Length = 200259 BitCount = 103 ID = 1138
  31.150754 1  472             Rx   d 6 D8 BE 04 00 00 00  Length = 202259 BitCount = 104 ID = 1138
  31.200684 1  512             Rx   d 4 00 00 00 01  Length = 166256 BitCount = 86 ID = 1298
  31.200892 1  472             Rx   d 6 CC C0 04 00 00 00  Length = 202259 BitCount = 104 ID = 1138
  31.250932 1  472             Rx   d 6 C0 C2 04 00 00 00  Length = 202259 BitCount = 104 ID = 1138
  31.300859 1  512             Rx   d 4 00 00 00 01  Length = 166256 BitCount = 86 ID = 1298
  31.301063 1  472             Rx   d 6 B4 C4 04 00 00 00  Length = 198259 BitCount = 102 ID = 1138
  31.350803 1  472             Rx   d 6 A8 C6 04 00 00 00  Length = 198259 BitCount = 102 ID = 1138
  31.400801 1  512             Rx   d 4 00 00 00 01  Length = 166256 BitCount = 86 ID = 1298
  31.401006 1  472             Rx   d 6 9C C8 04 00 00 00  Length = 198259 BitCount = 102 ID = 1138
  31.450738 1  472             Rx   d 6 90 CA 04 00 00 00  Length = 198259 BitCount = 102 ID = 1138
  31.500626 1  512             Rx   d 4 00 00 00 01  Length = 166256 BitCount = 86 ID = 1298
  31.500830 1  472             Rx   d 6 84 CC 04 00 00 00  Length = 198259 BitCount = 102 ID = 1138
  31.550693 1  472             Rx   d 6 78 CE 04 00 00 00  Length = 198259 BitCount = 102 ID = 1138
  31.600719 1  512             Rx   d 4 00 00 00 01  Length = 166256 BitCount = 86 ID = 1298
  31.600925 1  472             Rx   d 6 6C D0 04 00 00 00  Length = 200259 BitCount = 103 ID = 1138
  31.650647 1  472             Rx   d 6 60 D2 04 00 00 00  Length = 204259 BitCount = 105 ID = 1138
  31.700670 1  512             Rx   d 4 00 00 00 01  Length = 166256 BitCount = 86 ID = 1298
  31.700874 1  472             Rx   d 6 54 D4 04 00 00 00  Length = 198259 BitCount = 102 ID = 1138
  31.750906 1  472             Rx   d 6 48 D6 04 00 00 00  Length = 198259 BitCount = 102 ID = 1138
  31.800892 1  512             Rx   d 4 00 00 00 01  Length = 166256 BitCount = 86 ID = 1298
  31.801097 1  472             Rx   d 6 3C D8 04 00 00 00  Length = 198259 BitCount = 102 ID = 1138
  31.850887 1  472             Rx   d 6 30 DA 04 00 00 00  Length = 198259 BitCount = 102 ID = 1138
  31.900823 1  512             Rx   d 4 00 00 00 01  Length = 166256 BitCount = 86 ID = 1298
  31.901029 1  472             Rx   d 6 24 DC 04 00 00 00  Length = 200259 BitCount = 103 ID = 1138
  31.950814 1  472             Rx   d 6 18 DE 04 00 00 00  Length = 198259 BitCount = 102 ID = 1138
  32.000578 1  512             Rx   d 4 00 00 00 01  Length = 166256 BitCount = 86 ID = 1298
  32.000788 1  472             Rx   d 6 0C E0 04 00 00 00  Length = 204259 BitCount = 105 ID = 1138
  32.050736 1  472             Rx   d 6 00 E2 04 00 00 00  Length = 200259 BitCount = 103 ID = 1138
  32.100749 1  512             Rx   d 4 00 00 00 01  Length = 166256 BitCount = 86 ID = 1298
  32.100953 1  472             Rx   d 6 F4 E3 04 00 00 00  Length = 198259 BitCount = 102 ID = 1138
  32.150795 1  472             Rx   d 6 E8 E5 04 00 00 00  Length = 200259 BitCount = 103 ID = 1138
  32.200527 1  512             Rx   d 4 00 00 00 01  Length = 166256 BitCount = 86 ID = 1298
  32.200732 1  472             Rx   d 6 DC E7 04 00 00 00  Length = 198259 BitCount = 102 ID = 1138
  32.250692 1  472             Rx   d 6 D0 E9 04 00 00 00  Length = 202259 BitCount = 104 ID = 1138
  32.300818 1  512             Rx   d 4 00 00 00 01  Length = 166256 BitCount = 86 ID = 1298
  32.301022 1  472             Rx   d 6 C4 EB 04 00 00 00  Length = 198259 BitCount = 102 ID = 1138
  32.351011 1  472             Rx   d 6 B8 ED 04 00 00 00  Length = 198259 BitCount = 102 ID = 1138
  32.400897 1  512             Rx   d 4 00 00 00 01  Length = 166256 BitCount = 86 ID = 1298
  32.401105 1  472             Rx   d 6 AC EF 04 00 00 00  Length = 202259 BitCount = 104 ID = 1138
  32.450867 1  472             Rx   d 6 A0 F1 04 00 00 00  Length = 202259 BitCount = 104 ID = 1138
  32.500592 1  512             Rx   d 4 00 00 00 01  Length = 166256 BitCount = 86 ID = 1298
  32.500796 1  472             Rx   d 6 94 F3 04 00 00 00  Length = 198259 BitCount = 102 ID = 1138
  32.550730 1  472             Rx   d 6 88 F5 04 00 00 00  Length = 200259 BitCount = 103 ID = 1138
  32.600712 1  512             Rx   d 4 00 00 00 01  Length = 166256 BitCount = 86 ID = 1298
  32.600919 1  472             Rx   d 6 7C F7 04 00 00 00  Length = 200259 BitCount = 103 ID = 1138
  32.650755 1  472             Rx   d 6 70 F9 04 00 00 00  Length = 202259 BitCount = 104 ID = 1138
  32.700693 1  512             Rx   d 4 00 00 00 01  Length = 166256 BitCount = 86 ID = 1298
  32.700901 1  472             Rx   d 6 64 FB 04 00 00 00  Length = 202259 BitCount = 104 ID = 1138
  32.750876 1  472             Rx   d 6 58 FD 04 00 00 00  Length = 200259 BitCount = 103 ID = 1138
  32.800836 1  512             Rx   d 4 00 00 00 01  Length = 166256 BitCount = 86 ID = 1298
  32.801042 1  472             Rx   d 6 4C FF 04 00 00 00  Length = 200259 BitCount = 103 ID = 1138
  32.850884 1  472             Rx   d 6 40 01 05 00 00 00  Length = 202259 BitCount = 104 ID = 1138
  32.900941 1  512             Rx   d 4 00 00 00 01  Length = 166256 BitCount = 86 ID = 1298
  32.901145 1  472             Rx   d 6 34 03 05 00 00 00  Length = 198259 BitCount = 102 ID = 1138
  32.950957 1  472             Rx   d 6 28 05 05 00 00 00  Length = 198259 BitCount = 102 ID = 1138
  33.000607 1  512             Rx   d 4 00 00 00 01  Length = 166256 BitCount = 86 ID = 1298
  33.000814 1  472             Rx   d 6 1C 07 05 00 00 00  Length = 200259 BitCount = 103 ID = 1138
  33.050718 1  472             Rx   d 6 10 09 05 00 00 00  Length = 200259 BitCount = 103 ID = 1138
  33.100568 1  512             Rx   d 4 00 00 00 01  Length = 166256 BitCount = 86 ID = 1298
  33.100776 1  472             Rx   d 6 04 0B 05 00 00 00  Length = 202259 BitCount = 104 ID = 1138
  33.150803 1  472             Rx   d 6 F8 0C 05 00 00 00  Length = 202259 BitCount = 104 ID = 1138
  33.200657 1  512             Rx   d 4 00 00 00 01  Length = 166256 BitCount = 86 ID = 1298
  33.200865 1  472             Rx   d 6 EC 0E 05 00 00 00  Length = 202259 BitCount = 104 ID = 1138
  33.250869 1  472             Rx   d 6 E0 10 05 00 00 00  Length = 200259 BitCount = 103 ID = 1138
  33.300848 1  512             Rx   d 4 00 00 00 01  Length = 166256 BitCount = 86 ID = 1298
  33.301054 1  472             Rx   d 6 D4 12 05 00 00 00  Length = 200259 BitCount = 103 ID = 1138
  33.350734 1  472             Rx   d 6 C8 14 05 00 00 00  Length = 200259 BitCount = 103 ID = 1138
  33.400848 1  512             Rx   d 4 00 00 00 01  Length = 166256 BitCount = 86 ID = 1298
  33.401057 1  472             Rx   d 6 BC 16 05 00 00 00  Length = 202259 BitCount = 104 ID = 1138
  33.450879 1  472             Rx   d 6 B0 18 05 00 00 00  Length = 198259 BitCount = 102 ID = 1138
  33.500751 1  512             Rx   d 4 00 00 00 01  Length = 166256 BitCount = 86 ID = 1298
  33.500957 1  472             Rx   d 6 A4 1A 05 00 00 00  Length = 200259 BitCount = 103 ID = 1138
  33.550750 1  472             Rx   d 6 98 1C 05 00 00 00  Length = 200259 BitCount = 103 ID = 1138
  33.600716 1  512             Rx   d 4 00 00 00 01  Length = 166256 BitCount = 86 ID = 1298
  33.600922 1  472             Rx   d 6 8C 1E 05 00 00 00  Length = 200259 BitCount = 103 ID = 1138
  33.650562 1  472             Rx   d 6 80 20 05 00 00 00  Length = 204259 BitCount = 105 ID = 1138
  33.700513 1  512             Rx   d 4 00 00 00 01  Length = 166256 BitCount = 86 ID = 1298
  33.700715 1  472             Rx   d 6 74 22 05 00 00 00  Length = 196259 BitCount = 101 ID = 1138
  33.750653 1  472             Rx   d 6 68 24 05 00 00 00  Length = 200259 BitCount = 103 ID = 1138
  33.800761 1  512             Rx   d 4 00 00 00 01  Length = 166256 BitCount = 86 ID = 1298
  33.800964 1  472             Rx   d 6 5C 26 05 00 00 00  Length = 196259 BitCount = 101 ID = 1138
  33.850830 1  472             Rx   d 6 50 28 05 00 00 00  Length = 200259 BitCount = 103 ID = 1138
  33.900796 1  512             Rx   d 4 00 00 00 01  Length = 166256 BitCount = 86 ID = 1298
  33.901000 1  472             Rx   d 6 44 2A 05 00 00 00  Length = 198259 BitCount = 102 ID = 1138
  33.950789 1  472             Rx   d 6 38 2C 05 00 00 00  Length = 200259 BitCount = 103 ID = 1138
  34.000759 1  512             Rx   d 4 00 00 00 01  Length = 166256 BitCount = 86 ID = 1298
  34.000965 1  472             Rx   d 6 2C 2E 05 00 00 00  Length = 200259 BitCount = 103 ID = 1138
  34.050771 1  472             Rx   d 6 20 30 05 00 00 00  Length = 202259 BitCount = 104 ID = 1138
