date Fri Dec 23 03:23:46.069 pm 2022
base hex  timestamps absolute
no internal events logged
// version 16.2.0
// Measurement UUID: b5f253e6-dd90-428c-bdbc-40df642a9b8a
   0.001291 1  18FEE627x       Rx   d 8 00 00 00 00 00 00 00 00  Length = 284247 BitCount = 145 ID = 419358247x
   0.001579 1  18FD7D27x       Rx   d 8 F0 FF FF FF FF FF FF FF  Length = 282247 BitCount = 144 ID = 419265831x
   1.001106 1  18FEE627x       Rx   d 8 01 00 00 00 00 00 00 00  Length = 284262 BitCount = 145 ID = 419358247x
   1.001399 1  18FD7D27x       Rx   d 8 F1 FF FF FF FF FF FF FF  Length = 286262 BitCount = 146 ID = 419265831x
   2.000974 1  18FEE627x       Rx   d 8 02 00 00 00 00 00 00 00  Length = 284247 BitCount = 145 ID = 419358247x
   2.001263 1  18FD7D27x       Rx   d 8 F2 FF FF FF FF FF FF FF  Length = 282247 BitCount = 144 ID = 419265831x
   3.001408 1  18FEE627x       Rx   d 8 03 00 00 00 00 00 00 00  Length = 282247 BitCount = 144 ID = 419358247x
   3.001698 1  18FD7D27x       Rx   d 8 F3 FF FF FF FF FF FF FF  Length = 284247 BitCount = 145 ID = 419265831x
   4.001332 1  18FEE627x       Rx   d 8 04 00 00 00 00 00 00 00  Length = 286247 BitCount = 146 ID = 419358247x
   4.001620 1  18FD7D27x       Rx   d 8 F4 FF FF FF FF FF FF FF  Length = 282247 BitCount = 144 ID = 419265831x
   5.001210 1  18FEE627x       Rx   d 8 05 00 00 00 00 00 00 00  Length = 282247 BitCount = 144 ID = 419358247x
   5.001498 1  18FD7D27x       Rx   d 8 F0 FF FF FF FF FF FF FF  Length = 282247 BitCount = 144 ID = 419265831x
   6.000946 1  18FEE627x       Rx   d 8 06 00 00 00 00 00 00 00  Length = 284262 BitCount = 145 ID = 419358247x
   6.001238 1  18FD7D27x       Rx   d 8 F1 FF FF FF FF FF FF FF  Length = 286262 BitCount = 146 ID = 419265831x
   7.000956 1  18FEE627x       Rx   d 8 07 00 00 00 00 00 00 00  Length = 282263 BitCount = 144 ID = 419358247x
   7.001244 1  18FD7D27x       Rx   d 8 F2 FF FF FF FF FF FF FF  Length = 282263 BitCount = 144 ID = 419265831x
   8.001140 1  18FEE627x       Rx   d 8 08 00 00 00 00 00 00 00  Length = 284247 BitCount = 145 ID = 419358247x
   8.001430 1  18FD7D27x       Rx   d 8 F3 FF FF FF FF FF FF FF  Length = 284247 BitCount = 145 ID = 419265831x
   9.000950 1  18FEE627x       Rx   d 8 09 00 00 00 00 00 00 00  Length = 282262 BitCount = 144 ID = 419358247x
   9.001238 1  18FD7D27x       Rx   d 8 F4 FF FF FF FF FF FF FF  Length = 282262 BitCount = 144 ID = 419265831x
   9.991251 1  18FD7D27x       Rx   d 8 F0 FF FF FF FF FF FF FF  Length = 282263 BitCount = 144 ID = 419265831x
  10.001293 1  18FEE627x       Rx   d 8 0A 00 00 00 00 00 00 00  Length = 282263 BitCount = 144 ID = 419358247x
  10.991177 1  18FD7D27x       Rx   d 8 F1 FF FF FF FF FF FF 8F  Length = 284263 BitCount = 145 ID = 419265831x
  11.000943 1  18FEE627x       Rx   d 8 0B 00 00 00 00 00 00 00  Length = 284263 BitCount = 145 ID = 419358247x
  11.991189 1  18FD7D27x       Rx   d 8 F2 FF FF FF FF FF FF 9F  Length = 280247 BitCount = 143 ID = 419265831x
  12.001225 1  18FEE627x       Rx   d 8 0C 00 00 00 00 00 00 00  Length = 282247 BitCount = 144 ID = 419358247x
  12.991201 1  18FD7D27x       Rx   d 8 F3 FF FF FF FF FF FF AF  Length = 282247 BitCount = 144 ID = 419265831x
  13.001019 1  18FEE627x       Rx   d 8 0D 00 00 00 00 00 00 00  Length = 286247 BitCount = 146 ID = 419358247x
  13.991141 1  18FD7D27x       Rx   d 8 F4 FF FF FF FF FF FF BF  Length = 282263 BitCount = 144 ID = 419265831x
  14.001159 1  18FEE627x       Rx   d 8 0E 00 00 00 00 00 00 00  Length = 286263 BitCount = 146 ID = 419358247x
  14.991208 1  18FD7D27x       Rx   d 8 F0 FF FF FF FF FF FF FF  Length = 282263 BitCount = 144 ID = 419265831x
  15.001039 1  18FEE627x       Rx   d 8 0F 00 00 00 00 00 00 00  Length = 284263 BitCount = 145 ID = 419358247x
  15.991186 1  18FD7D27x       Rx   d 8 F1 FF FF FF FF FF FF 8F  Length = 284263 BitCount = 145 ID = 419265831x
  16.000975 1  18FEE627x       Rx   d 8 10 00 00 00 00 00 00 00  Length = 284263 BitCount = 145 ID = 419358247x
  16.991230 1  18FD7D27x       Rx   d 8 F2 FF FF FF FF FF FF 9F  Length = 280247 BitCount = 143 ID = 419265831x
  17.001098 1  18FEE627x       Rx   d 8 11 00 00 00 00 00 00 00  Length = 284247 BitCount = 145 ID = 419358247x
  17.991254 1  18FD7D27x       Rx   d 8 F3 FF FF FF FF FF FF AF  Length = 282247 BitCount = 144 ID = 419265831x
  18.000976 1  18FEE627x       Rx   d 8 12 00 00 00 00 00 00 00  Length = 284247 BitCount = 145 ID = 419358247x
  18.991174 1  18FD7D27x       Rx   d 8 F4 FF FF FF FF FF FF BF  Length = 282247 BitCount = 144 ID = 419265831x
  19.000976 1  18FEE627x       Rx   d 8 13 00 00 00 00 00 00 00  Length = 284247 BitCount = 145 ID = 419358247x
  19.991244 1  18FD7D27x       Rx   d 8 F0 BF FF FF FF FF FF FF  Length = 282247 BitCount = 144 ID = 419265831x
  20.001140 1  18FEE627x       Rx   d 8 14 00 00 00 00 00 00 00  Length = 282247 BitCount = 144 ID = 419358247x
  20.991194 1  18FD7D27x       Rx   d 8 F1 FF FF FF FF FF FF 8F  Length = 284262 BitCount = 145 ID = 419265831x
  21.000998 1  18FEE627x       Rx   d 8 15 00 00 00 00 00 00 00  Length = 282262 BitCount = 144 ID = 419358247x
  21.991227 1  18FD7D27x       Rx   d 8 F2 FF FF FF FF FF FF 9F  Length = 280263 BitCount = 143 ID = 419265831x
  22.000974 1  18FEE627x       Rx   d 8 16 00 00 00 00 00 00 00  Length = 282263 BitCount = 144 ID = 419358247x
  22.991157 1  18FD7D27x       Rx   d 8 F3 FF FF FF FF FF FF AF  Length = 282263 BitCount = 144 ID = 419265831x
  23.000946 1  18FEE627x       Rx   d 8 17 00 00 00 00 00 00 00  Length = 282263 BitCount = 144 ID = 419358247x
  23.990923 1  18FD7D27x       Rx   d 8 F4 FF FF FF FF FF FF BF  Length = 282247 BitCount = 144 ID = 419265831x
  24.000947 1  18FEE627x       Rx   d 8 18 00 00 00 00 00 00 00  Length = 284247 BitCount = 145 ID = 419358247x
  24.990935 1  18FD7D27x       Rx   d 8 F0 BF FF FF FF FF FF FF  Length = 282262 BitCount = 144 ID = 419265831x
  25.000927 1  18FEE627x       Rx   d 8 19 00 00 00 00 00 00 00  Length = 284262 BitCount = 145 ID = 419358247x
  25.991179 1  18FD7D27x       Rx   d 8 F1 FF FF FF FF FF FF 8F  Length = 284247 BitCount = 145 ID = 419265831x
  26.000987 1  18FEE627x       Rx   d 8 1A 00 00 00 00 00 00 00  Length = 284247 BitCount = 145 ID = 419358247x
  26.991133 1  18FD7D27x       Rx   d 8 F2 FF FF FF FF FF FF 9F  Length = 280247 BitCount = 143 ID = 419265831x
  27.001147 1  18FEE627x       Rx   d 8 1B 00 00 00 00 00 00 00  Length = 282247 BitCount = 144 ID = 419358247x
  27.991175 1  18FD7D27x       Rx   d 8 F3 FF FF FF FF FF FF AF  Length = 282247 BitCount = 144 ID = 419265831x
  28.001193 1  18FEE627x       Rx   d 8 1C 00 00 00 00 00 00 00  Length = 282247 BitCount = 144 ID = 419358247x
  28.991251 1  18FD7D27x       Rx   d 8 F4 FF FF FF FF FF FF BF  Length = 282247 BitCount = 144 ID = 419265831x
  29.001285 1  18FEE627x       Rx   d 8 1D 00 00 00 00 00 00 00  Length = 282247 BitCount = 144 ID = 419358247x
  29.991318 1  18FD7D27x       Rx   d 8 F0 BF FA FF FF A9 BF FF  Length = 278247 BitCount = 142 ID = 419265831x
  30.001092 1  18FEE627x       Rx   d 8 1E 00 00 00 00 00 00 00  Length = 284247 BitCount = 145 ID = 419358247x
  30.991178 1  18FD7D27x       Rx   d 8 F1 FF FF FF FF FF FF 8F  Length = 284247 BitCount = 145 ID = 419265831x
  31.001190 1  18FEE627x       Rx   d 8 1F 00 00 00 00 00 00 00  Length = 284247 BitCount = 145 ID = 419358247x
  31.991196 1  18FD7D27x       Rx   d 8 F2 FF FF FF FF FF FF 9F  Length = 280247 BitCount = 143 ID = 419265831x
  32.001220 1  18FEE627x       Rx   d 8 20 00 00 00 00 00 00 00  Length = 284247 BitCount = 145 ID = 419358247x
  32.991190 1  18FD7D27x       Rx   d 8 F3 FF FF FF FF FF FF AF  Length = 282263 BitCount = 144 ID = 419265831x
  33.001010 1  18FEE627x       Rx   d 8 21 00 00 00 00 00 00 00  Length = 282263 BitCount = 144 ID = 419358247x
  33.991200 1  18FD7D27x       Rx   d 8 F4 FF FF FF FF FF FF BF  Length = 282247 BitCount = 144 ID = 419265831x
  34.001014 1  18FEE627x       Rx   d 8 22 00 00 00 00 00 00 00  Length = 284247 BitCount = 145 ID = 419358247x
  34.991131 1  18FD7D27x       Rx   d 8 F0 BF FA FF FF A9 BF FF  Length = 278247 BitCount = 142 ID = 419265831x
  35.000968 1  18FEE627x       Rx   d 8 23 00 00 00 00 00 00 00  Length = 282247 BitCount = 144 ID = 419358247x
  35.991169 1  18FD7D27x       Rx   d 8 F1 FF FF FF FF FF FF 8F  Length = 284247 BitCount = 145 ID = 419265831x
  36.000948 1  18FEE627x       Rx   d 8 24 00 00 00 00 00 00 00  Length = 282247 BitCount = 144 ID = 419358247x
  36.991227 1  18FD7D27x       Rx   d 8 F2 FF FF FF FF FF FF 9F  Length = 280247 BitCount = 143 ID = 419265831x
  37.000978 1  18FEE627x       Rx   d 8 25 00 00 00 00 00 00 00  Length = 284247 BitCount = 145 ID = 419358247x
  37.991151 1  18FD7D27x       Rx   d 8 F3 FF FF FF FF FF FF AF  Length = 282263 BitCount = 144 ID = 419265831x
  38.000992 1  18FEE627x       Rx   d 8 26 00 00 00 00 00 00 00  Length = 282263 BitCount = 144 ID = 419358247x
  38.991011 1  18FD7D27x       Rx   d 8 F4 FF FF FF FF FF FF BF  Length = 282247 BitCount = 144 ID = 419265831x
  39.001008 1  18FEE627x       Rx   d 8 27 00 00 00 00 00 00 00  Length = 282247 BitCount = 144 ID = 419358247x
  39.991191 1  18FD7D27x       Rx   d 8 F0 BF FF FF FF FF FF FF  Length = 282247 BitCount = 144 ID = 419265831x
  40.001115 1  18FEE627x       Rx   d 8 28 00 00 00 00 00 00 00  Length = 284247 BitCount = 145 ID = 419358247x
  40.990973 1  18FD7D27x       Rx   d 8 F1 FF FF FF FF FF FF 8F  Length = 284247 BitCount = 145 ID = 419265831x
  41.000975 1  18FEE627x       Rx   d 8 29 00 00 00 00 00 00 00  Length = 282247 BitCount = 144 ID = 419358247x
  41.990939 1  18FD7D27x       Rx   d 8 F2 FF FF FF FF FF FF 9F  Length = 280262 BitCount = 143 ID = 419265831x
  42.000907 1  18FEE627x       Rx   d 8 2A 00 00 00 00 00 00 00  Length = 284262 BitCount = 145 ID = 419358247x
  42.991153 1  18FD7D27x       Rx   d 8 F3 FF FF FF FF FF FF AF  Length = 282247 BitCount = 144 ID = 419265831x
  43.000947 1  18FEE627x       Rx   d 8 2B 00 00 00 00 00 00 00  Length = 282247 BitCount = 144 ID = 419358247x
  43.991237 1  18FD7D27x       Rx   d 8 F4 FF FF FF FF FF FF BF  Length = 282247 BitCount = 144 ID = 419265831x
  44.000993 1  18FEE627x       Rx   d 8 2C 00 00 00 00 00 00 00  Length = 286247 BitCount = 146 ID = 419358247x
  44.991236 1  18FD7D27x       Rx   d 8 F0 BF FF FF FF FF FF FF  Length = 282247 BitCount = 144 ID = 419265831x
  45.001002 1  18FEE627x       Rx   d 8 2D 00 00 00 00 00 00 00  Length = 282247 BitCount = 144 ID = 419358247x
  45.991206 1  18FD7D27x       Rx   d 8 F1 FF FF FF FF FF FF 8F  Length = 284247 BitCount = 145 ID = 419265831x
  46.000964 1  18FEE627x       Rx   d 8 2E 00 00 00 00 00 00 00  Length = 284247 BitCount = 145 ID = 419358247x
  46.991290 1  18FD7D27x       Rx   d 8 F2 FF FF FF FF FF FF 9F  Length = 280247 BitCount = 143 ID = 419265831x
  47.001340 1  18FEE627x       Rx   d 8 2F 00 00 00 00 00 00 00  Length = 284247 BitCount = 145 ID = 419358247x
  47.991174 1  18FD7D27x       Rx   d 8 F3 FF FF FF FF FF FF AF  Length = 282247 BitCount = 144 ID = 419265831x
  48.000992 1  18FEE627x       Rx   d 8 30 00 00 00 00 00 00 00  Length = 286247 BitCount = 146 ID = 419358247x
  48.991972 1  18FD7D27x       Rx   d 8 F4 FF FF FF FF FF FF BF  Length = 282247 BitCount = 144 ID = 419265831x
  49.001680 1  18FEE627x       Rx   d 8 31 00 00 00 00 00 00 00  Length = 282247 BitCount = 144 ID = 419358247x
  49.991173 1  18FD7D27x       Rx   d 8 F0 FF FF FF FF FF FF FF  Length = 282263 BitCount = 144 ID = 419265831x
  50.001200 1  18FEE627x       Rx   d 8 32 00 00 00 00 00 00 00  Length = 282263 BitCount = 144 ID = 419358247x
  50.991175 1  18FD7D27x       Rx   d 8 F1 FF FF FF FF FF FF 8F  Length = 284247 BitCount = 145 ID = 419265831x
  51.001022 1  18FEE627x       Rx   d 8 33 00 00 00 00 00 00 00  Length = 284247 BitCount = 145 ID = 419358247x
  51.991154 1  18FD7D27x       Rx   d 8 F2 FF FF FF FF FF FF 9F  Length = 280263 BitCount = 143 ID = 419265831x
  52.001062 1  18FEE627x       Rx   d 8 34 00 00 00 00 00 00 00  Length = 286263 BitCount = 146 ID = 419358247x
  52.991126 1  18FD7D27x       Rx   d 8 F3 FF FF FF FF FF FF AF  Length = 282262 BitCount = 144 ID = 419265831x
  53.000940 1  18FEE627x       Rx   d 8 35 00 00 00 00 00 00 00  Length = 282262 BitCount = 144 ID = 419358247x
  53.991167 1  18FD7D27x       Rx   d 8 F4 FF FF FF FF FF FF BF  Length = 282247 BitCount = 144 ID = 419265831x
  54.001004 1  18FEE627x       Rx   d 8 36 00 00 00 00 00 00 00  Length = 282247 BitCount = 144 ID = 419358247x
  54.991189 1  18FD7D27x       Rx   d 8 F0 FF FF FF FF FF FF FF  Length = 282247 BitCount = 144 ID = 419265831x
  55.001043 1  18FEE627x       Rx   d 8 37 00 00 00 00 00 00 00  Length = 282247 BitCount = 144 ID = 419358247x
  55.991175 1  18FD7D27x       Rx   d 8 F1 FF FF FF FF FF FF 8F  Length = 284247 BitCount = 145 ID = 419265831x
  56.000963 1  18FEE627x       Rx   d 8 38 00 00 00 00 00 00 00  Length = 286247 BitCount = 146 ID = 419358247x
  56.991145 1  18FD7D27x       Rx   d 8 F2 FF FF FF FF FF FF 9F  Length = 280262 BitCount = 143 ID = 419265831x
  57.001005 1  18FEE627x       Rx   d 8 39 00 00 00 00 00 00 00  Length = 282262 BitCount = 144 ID = 419358247x
  57.990907 1  18FD7D27x       Rx   d 8 F3 FF FF FF FF FF FF AF  Length = 282263 BitCount = 144 ID = 419265831x
  58.000951 1  18FEE627x       Rx   d 8 3A 00 00 00 00 00 00 00  Length = 282263 BitCount = 144 ID = 419358247x
  58.990953 1  18FD7D27x       Rx   d 8 F4 FF FF FF FF FF FF BF  Length = 282263 BitCount = 144 ID = 419265831x
  59.000919 1  18FEE627x       Rx   d 8 3B 00 00 00 00 00 00 00  Length = 282263 BitCount = 144 ID = 419358247x
  59.991140 1  18FD7D27x       Rx   d 8 F0 FF FF FF FF FF FF FF  Length = 282247 BitCount = 144 ID = 419265831x
  60.000945 1  18FEE627x       Rx   d 8 3C 00 00 00 00 00 00 00  Length = 286247 BitCount = 146 ID = 419358247x
  60.991156 1  18FD7D27x       Rx   d 8 F1 FF FF FF FF FF FF 8F  Length = 284262 BitCount = 145 ID = 419265831x
  61.000929 1  18FEE627x       Rx   d 8 3D 00 00 00 00 00 00 00  Length = 284262 BitCount = 145 ID = 419358247x
  61.991141 1  18FD7D27x       Rx   d 8 F2 FF FF FF FF FF FF FF  Length = 282247 BitCount = 144 ID = 419265831x
  62.000955 1  18FEE627x       Rx   d 8 3E 00 00 00 00 00 00 00  Length = 286247 BitCount = 146 ID = 419358247x
  62.991139 1  18FD7D27x       Rx   d 8 F3 FF FF FF FF FF FF FF  Length = 284247 BitCount = 145 ID = 419265831x
  63.000903 1  18FEE627x       Rx   d 8 3F 00 00 00 00 00 00 00  Length = 284247 BitCount = 145 ID = 419358247x
  63.991184 1  18FD7D27x       Rx   d 8 F4 FF FF FF FF FF FF FF  Length = 282262 BitCount = 144 ID = 419265831x
  64.000953 1  18FEE627x       Rx   d 8 40 00 00 00 00 00 00 00  Length = 282262 BitCount = 144 ID = 419358247x
  64.991154 1  18FD7D27x       Rx   d 8 F0 FF FF FF FF FF FF FF  Length = 282247 BitCount = 144 ID = 419265831x
  65.000974 1  18FEE627x       Rx   d 8 41 00 00 00 00 00 00 00  Length = 282247 BitCount = 144 ID = 419358247x
  65.991168 1  18FD7D27x       Rx   d 8 F1 FF FF FF FF FF FF 8F  Length = 284247 BitCount = 145 ID = 419265831x
  66.000956 1  18FEE627x       Rx   d 8 42 00 00 00 00 00 00 00  Length = 280247 BitCount = 143 ID = 419358247x
  66.991168 1  18FD7D27x       Rx   d 8 F2 FF FF FF FF FF FF FF  Length = 282263 BitCount = 144 ID = 419265831x
  67.001162 1  18FEE627x       Rx   d 8 43 00 00 00 00 00 00 00  Length = 280263 BitCount = 143 ID = 419358247x
  67.990974 1  18FD7D27x       Rx   d 8 F3 FF FF FF FF FF FF FF  Length = 284247 BitCount = 145 ID = 419265831x
  68.001004 1  18FEE627x       Rx   d 8 44 00 00 00 00 00 00 00  Length = 282247 BitCount = 144 ID = 419358247x
  68.991164 1  18FD7D27x       Rx   d 8 F4 FF FF FF FF FF FF FF  Length = 282247 BitCount = 144 ID = 419265831x
  69.001196 1  18FEE627x       Rx   d 8 45 00 00 00 00 00 00 00  Length = 280247 BitCount = 143 ID = 419358247x
  69.991125 1  18FD7D27x       Rx   d 8 F0 FF FF FF FF FF FF FF  Length = 282247 BitCount = 144 ID = 419265831x
  70.001140 1  18FEE627x       Rx   d 8 46 00 00 00 00 00 00 00  Length = 284247 BitCount = 145 ID = 419358247x
  70.991145 1  18FD7D27x       Rx   d 8 F1 FF FF FF FF FF FF FF  Length = 286247 BitCount = 146 ID = 419265831x
  71.000902 1  18FEE627x       Rx   d 8 47 00 00 00 00 00 00 00  Length = 280247 BitCount = 143 ID = 419358247x
  71.991152 1  18FD7D27x       Rx   d 8 F2 FF FF FF FF FF FF FF  Length = 282263 BitCount = 144 ID = 419265831x
  72.001184 1  18FEE627x       Rx   d 8 48 00 00 00 00 00 00 00  Length = 280263 BitCount = 143 ID = 419358247x
  72.990972 1  18FD7D27x       Rx   d 8 F3 FF FF FF FF FF FF FF  Length = 284262 BitCount = 145 ID = 419265831x
  73.000872 1  18FEE627x       Rx   d 8 49 00 00 00 00 00 00 00  Length = 282262 BitCount = 144 ID = 419358247x
  73.991135 1  18FD7D27x       Rx   d 8 F4 FF FF FF FF FF FF FF  Length = 282263 BitCount = 144 ID = 419265831x
  74.001168 1  18FEE627x       Rx   d 8 4A 00 00 00 00 00 00 00  Length = 280263 BitCount = 143 ID = 419358247x
  74.990913 1  18FD7D27x       Rx   d 8 F0 FF FF FF FF FF FF FF  Length = 282247 BitCount = 144 ID = 419265831x
  75.000891 1  18FEE627x       Rx   d 8 4B 00 00 00 00 00 00 00  Length = 282247 BitCount = 144 ID = 419358247x
  75.990965 1  18FD7D27x       Rx   d 8 F1 FF FF FF FF FF FF FF  Length = 286247 BitCount = 146 ID = 419265831x
  76.000945 1  18FEE627x       Rx   d 8 4C 00 00 00 00 00 00 00  Length = 280247 BitCount = 143 ID = 419358247x
  76.990913 1  18FD7D27x       Rx   d 8 F2 FF FF FF FF FF FF FF  Length = 282247 BitCount = 144 ID = 419265831x
  77.000931 1  18FEE627x       Rx   d 8 4D 00 00 00 00 00 00 00  Length = 282247 BitCount = 144 ID = 419358247x
  77.991139 1  18FD7D27x       Rx   d 8 F3 FF FF FF FF FF FF FF  Length = 284247 BitCount = 145 ID = 419265831x
  78.001177 1  18FEE627x       Rx   d 8 4E 00 00 00 00 00 00 00  Length = 280247 BitCount = 143 ID = 419358247x
  78.990923 1  18FD7D27x       Rx   d 8 F4 FF FF FF FF FF FF FF  Length = 282247 BitCount = 144 ID = 419265831x
  79.000959 1  18FEE627x       Rx   d 8 4F 00 00 00 00 00 00 00  Length = 284247 BitCount = 145 ID = 419358247x