date Fri Dec 9 03:17:39.345 pm 2022
base hex  timestamps absolute
no internal events logged
// version 16.2.0
// Measurement UUID: 93a07a7e-1837-4d39-893a-4b943d5f0333
   0.001378 1  18FEE627x       Rx   d 8 00 00 00 00 00 00 00 00  Length = 284262 BitCount = 145 ID = 419358247x
   0.001962 1  18FFEA31x       Rx   d 8 FF FF FF FF FF FF FF FF  Length = 290262 BitCount = 148 ID = 419424817x
   1.001056 1  18FEE627x       Rx   d 8 01 00 00 00 00 00 00 00  Length = 284247 BitCount = 145 ID = 419358247x
   1.001352 1  18FFEA31x       Rx   d 8 FF FF FF FF FF FF FF FF  Length = 290247 BitCount = 148 ID = 419424817x
   2.001016 1  18FEE627x       Rx   d 8 02 00 00 00 00 00 00 00  Length = 284263 BitCount = 145 ID = 419358247x
   2.001313 1  18FFEA31x       Rx   d 8 FF FF FF FF FF FF FF FF  Length = 290263 BitCount = 148 ID = 419424817x
   3.000868 1  18FEE627x       Rx   d 8 03 00 00 00 00 00 00 00  Length = 282247 BitCount = 144 ID = 419358247x
   3.001164 1  18FFEA31x       Rx   d 8 FF FF FF FF FF FF FF FF  Length = 290247 BitCount = 148 ID = 419424817x
   4.001083 1  18FEE627x       Rx   d 8 04 00 00 00 00 00 00 00  Length = 286247 BitCount = 146 ID = 419358247x
   4.001379 1  18FFEA31x       Rx   d 8 FF FF FF FF FF FF FF FF  Length = 290247 BitCount = 148 ID = 419424817x
   5.001098 1  18FEE627x       Rx   d 8 05 00 00 00 00 00 00 00  Length = 282247 BitCount = 144 ID = 419358247x
   5.001368 1  18FFEA31x       Rx   d 8 20 A1 23 4A A3 45 6A A5  Length = 264247 BitCount = 135 ID = 419424817x
   6.001137 1  18FEE627x       Rx   d 8 06 00 00 00 00 00 00 00  Length = 284263 BitCount = 145 ID = 419358247x
   6.001407 1  18FFEA31x       Rx   d 8 21 B1 23 4B B3 45 6B B5  Length = 264263 BitCount = 135 ID = 419424817x
   7.000802 1  18FEE627x       Rx   d 8 07 00 00 00 00 00 00 00  Length = 282247 BitCount = 144 ID = 419358247x
   7.001072 1  18FFEA31x       Rx   d 8 22 C1 23 4C C3 45 6C C5  Length = 264247 BitCount = 135 ID = 419424817x
   8.000749 1  18FEE627x       Rx   d 8 08 00 00 00 00 00 00 00  Length = 284247 BitCount = 145 ID = 419358247x
   8.001020 1  18FFEA31x       Rx   d 8 20 A1 23 4A A3 45 6A A5  Length = 264247 BitCount = 135 ID = 419424817x
   9.000792 1  18FEE627x       Rx   d 8 09 00 00 00 00 00 00 00  Length = 282262 BitCount = 144 ID = 419358247x
   9.001062 1  18FFEA31x       Rx   d 8 21 B1 23 4B B3 45 6B B5  Length = 264262 BitCount = 135 ID = 419424817x
  10.001053 1  18FEE627x       Rx   d 8 0A 00 00 00 00 00 00 00  Length = 282247 BitCount = 144 ID = 419358247x
  10.001323 1  18FFEA31x       Rx   d 8 22 C1 23 4C C3 45 6C C5  Length = 264247 BitCount = 135 ID = 419424817x
  11.001070 1  18FEE627x       Rx   d 8 0B 00 00 00 00 00 00 00  Length = 284263 BitCount = 145 ID = 419358247x
  11.001340 1  18FFEA31x       Rx   d 8 20 A1 23 4A A3 45 6A A5  Length = 264263 BitCount = 135 ID = 419424817x
  12.001006 1  18FEE627x       Rx   d 8 0C 00 00 00 00 00 00 00  Length = 282263 BitCount = 144 ID = 419358247x
  12.001276 1  18FFEA31x       Rx   d 8 21 B1 23 4B B3 45 6B B5  Length = 264263 BitCount = 135 ID = 419424817x
  13.001060 1  18FEE627x       Rx   d 8 0D 00 00 00 00 00 00 00  Length = 286247 BitCount = 146 ID = 419358247x
  13.001330 1  18FFEA31x       Rx   d 8 22 C1 23 4C C3 45 6C C5  Length = 264247 BitCount = 135 ID = 419424817x
  14.001021 1  18FEE627x       Rx   d 8 0E 00 00 00 00 00 00 00  Length = 286247 BitCount = 146 ID = 419358247x
  14.001309 1  18FFEA31x       Rx   d 8 23 D1 FF FF FF FF FF FF  Length = 282247 BitCount = 144 ID = 419424817x
  15.001024 1  18FEE627x       Rx   d 8 0F 00 00 00 00 00 00 00  Length = 284263 BitCount = 145 ID = 419358247x
  15.001294 1  18FFEA31x       Rx   d 8 20 A1 23 4A A3 45 6A A5  Length = 264263 BitCount = 135 ID = 419424817x
  16.001061 1  18FEE627x       Rx   d 8 10 00 00 00 00 00 00 00  Length = 284247 BitCount = 145 ID = 419358247x
  16.001331 1  18FFEA31x       Rx   d 8 21 B1 23 4B B3 45 6B B5  Length = 264247 BitCount = 135 ID = 419424817x
  17.001058 1  18FEE627x       Rx   d 8 11 00 00 00 00 00 00 00  Length = 284247 BitCount = 145 ID = 419358247x
  17.001328 1  18FFEA31x       Rx   d 8 22 C1 23 4C C3 45 6C C5  Length = 264247 BitCount = 135 ID = 419424817x
  18.001060 1  18FEE627x       Rx   d 8 12 00 00 00 00 00 00 00  Length = 284247 BitCount = 145 ID = 419358247x
  18.001344 1  18FFEA31x       Rx   d 8 23 D1 23 FD FF FF FF FF  Length = 278247 BitCount = 142 ID = 419424817x
  19.001058 1  18FEE627x       Rx   d 8 13 00 00 00 00 00 00 00  Length = 284263 BitCount = 145 ID = 419358247x
  19.001329 1  18FFEA31x       Rx   d 8 20 A1 23 4A A3 45 6A A5  Length = 264263 BitCount = 135 ID = 419424817x
  20.001057 1  18FEE627x       Rx   d 8 14 00 00 00 00 00 00 00  Length = 282262 BitCount = 144 ID = 419358247x
  20.001328 1  18FFEA31x       Rx   d 8 21 B1 23 4B B3 45 6B B5  Length = 264262 BitCount = 135 ID = 419424817x
  21.001076 1  18FEE627x       Rx   d 8 15 00 00 00 00 00 00 00  Length = 282247 BitCount = 144 ID = 419358247x
  21.001347 1  18FFEA31x       Rx   d 8 22 C1 23 4C C3 45 6C C5  Length = 264247 BitCount = 135 ID = 419424817x
  22.001063 1  18FEE627x       Rx   d 8 16 00 00 00 00 00 00 00  Length = 282247 BitCount = 144 ID = 419358247x
  22.001351 1  18FFEA31x       Rx   d 8 23 D1 FF FF FF FF FF FF  Length = 282247 BitCount = 144 ID = 419424817x
  23.001076 1  18FEE627x       Rx   d 8 17 00 00 00 00 00 00 00  Length = 282247 BitCount = 144 ID = 419358247x
  23.001347 1  18FFEA31x       Rx   d 8 20 A1 23 4A A3 45 6A A5  Length = 264247 BitCount = 135 ID = 419424817x
  24.001081 1  18FEE627x       Rx   d 8 18 00 00 00 00 00 00 00  Length = 284247 BitCount = 145 ID = 419358247x
  24.001352 1  18FFEA31x       Rx   d 8 21 B1 23 4B B3 45 6B B5  Length = 264247 BitCount = 135 ID = 419424817x
  25.000810 1  18FEE627x       Rx   d 8 19 00 00 00 00 00 00 00  Length = 284247 BitCount = 145 ID = 419358247x
  25.001081 1  18FFEA31x       Rx   d 8 22 C1 23 4C C3 45 6C C5  Length = 264247 BitCount = 135 ID = 419424817x
  26.000787 1  18FEE627x       Rx   d 8 1A 00 00 00 00 00 00 00  Length = 284247 BitCount = 145 ID = 419358247x
  26.001066 1  18FFEA31x       Rx   d 8 23 D1 23 4D D3 FF FF FF  Length = 272247 BitCount = 139 ID = 419424817x
  27.000798 1  18FEE627x       Rx   d 8 1B 00 00 00 00 00 00 00  Length = 282247 BitCount = 144 ID = 419358247x
  27.001068 1  18FFEA31x       Rx   d 8 20 A1 23 4A A3 45 6A A5  Length = 264247 BitCount = 135 ID = 419424817x
  28.001040 1  18FEE627x       Rx   d 8 1C 00 00 00 00 00 00 00  Length = 282263 BitCount = 144 ID = 419358247x
  28.001310 1  18FFEA31x       Rx   d 8 21 B1 23 4B B3 45 6B B5  Length = 264263 BitCount = 135 ID = 419424817x
  29.001009 1  18FEE627x       Rx   d 8 1D 00 00 00 00 00 00 00  Length = 282247 BitCount = 144 ID = 419358247x
  29.001279 1  18FFEA31x       Rx   d 8 22 C1 23 4C C3 45 6C C5  Length = 264247 BitCount = 135 ID = 419424817x
  30.001022 1  18FEE627x       Rx   d 8 1E 00 00 00 00 00 00 00  Length = 284247 BitCount = 145 ID = 419358247x
  30.001310 1  18FFEA31x       Rx   d 8 23 D1 FF FF FF FF FF FF  Length = 282247 BitCount = 144 ID = 419424817x
  31.001071 1  18FEE627x       Rx   d 8 1F 00 00 00 00 00 00 00  Length = 284247 BitCount = 145 ID = 419358247x
  31.001341 1  18FFEA31x       Rx   d 8 20 A1 23 4A A3 45 6A A5  Length = 264247 BitCount = 135 ID = 419424817x
  32.001085 1  18FEE627x       Rx   d 8 20 00 00 00 00 00 00 00  Length = 284247 BitCount = 145 ID = 419358247x
  32.001355 1  18FFEA31x       Rx   d 8 21 B1 23 4B B3 45 6B B5  Length = 264247 BitCount = 135 ID = 419424817x
  33.001083 1  18FEE627x       Rx   d 8 21 00 00 00 00 00 00 00  Length = 282247 BitCount = 144 ID = 419358247x
  33.001353 1  18FFEA31x       Rx   d 8 22 C1 23 4C C3 45 6C C5  Length = 264247 BitCount = 135 ID = 419424817x
  34.001027 1  18FEE627x       Rx   d 8 22 00 00 00 00 00 00 00  Length = 284247 BitCount = 145 ID = 419358247x
  34.001298 1  18FFEA31x       Rx   d 8 20 A1 23 4A A3 45 6A A5  Length = 264247 BitCount = 135 ID = 419424817x
  35.001198 1  18FEE627x       Rx   d 8 23 00 00 00 00 00 00 00  Length = 282247 BitCount = 144 ID = 419358247x
  35.001468 1  18FFEA31x       Rx   d 8 21 B1 23 4B B3 45 6B B5  Length = 264247 BitCount = 135 ID = 419424817x
  36.001075 1  18FEE627x       Rx   d 8 24 00 00 00 00 00 00 00  Length = 282262 BitCount = 144 ID = 419358247x
  36.001345 1  18FFEA31x       Rx   d 8 22 C1 23 4C C3 45 6C C5  Length = 264262 BitCount = 135 ID = 419424817x
  37.000827 1  18FEE627x       Rx   d 8 25 00 00 00 00 00 00 00  Length = 284247 BitCount = 145 ID = 419358247x
  37.001098 1  18FFEA31x       Rx   d 8 20 A1 23 4A A3 45 6A A5  Length = 264247 BitCount = 135 ID = 419424817x
  38.001061 1  18FEE627x       Rx   d 8 26 00 00 00 00 00 00 00  Length = 282263 BitCount = 144 ID = 419358247x
  38.001331 1  18FFEA31x       Rx   d 8 21 B1 23 4B B3 45 6B B5  Length = 264263 BitCount = 135 ID = 419424817x
  39.001079 1  18FEE627x       Rx   d 8 27 00 00 00 00 00 00 00  Length = 282247 BitCount = 144 ID = 419358247x
  39.001350 1  18FFEA31x       Rx   d 8 22 C1 23 4C C3 45 6C C5  Length = 264247 BitCount = 135 ID = 419424817x
  40.000042 1  18FFEA31x       Rx   d 8 FF FF FF FF FF FF FF FF  Length = 290263 BitCount = 148 ID = 419424817x
  40.000872 1  18FEE627x       Rx   d 8 28 00 00 00 00 00 00 00  Length = 284263 BitCount = 145 ID = 419358247x
  40.999978 1  18FFEA31x       Rx   d 8 FF FF FF FF FF FF FF FF  Length = 290263 BitCount = 148 ID = 419424817x
  41.000902 1  18FEE627x       Rx   d 8 29 00 00 00 00 00 00 00  Length = 282263 BitCount = 144 ID = 419358247x
  42.000034 1  18FFEA31x       Rx   d 8 FF FF FF FF FF FF FF FF  Length = 290247 BitCount = 148 ID = 419424817x
  42.000852 1  18FEE627x       Rx   d 8 2A 00 00 00 00 00 00 00  Length = 284247 BitCount = 145 ID = 419358247x
  42.999728 1  18FFEA31x       Rx   d 8 FF FF FF FF FF FF FF FF  Length = 290262 BitCount = 148 ID = 419424817x
  43.000706 1  18FEE627x       Rx   d 8 2B 00 00 00 00 00 00 00  Length = 282262 BitCount = 144 ID = 419358247x
  43.999776 1  18FFEA31x       Rx   d 8 FF FF FF FF FF FF FF FF  Length = 290247 BitCount = 148 ID = 419424817x
  44.000784 1  18FEE627x       Rx   d 8 2C 00 00 00 00 00 00 00  Length = 286247 BitCount = 146 ID = 419358247x
  45.000037 1  18FFEA31x       Rx   d 8 FF FF FF FF FF FF FF FF  Length = 290262 BitCount = 148 ID = 419424817x
  45.000866 1  18FEE627x       Rx   d 8 2D 00 00 00 00 00 00 00  Length = 282262 BitCount = 144 ID = 419358247x
  46.000031 1  18FFEA31x       Rx   d 8 FF FF FF FF FF FF FF FF  Length = 290247 BitCount = 148 ID = 419424817x
  46.000849 1  18FEE627x       Rx   d 8 2E 00 00 00 00 00 00 00  Length = 284247 BitCount = 145 ID = 419358247x
  47.000029 1  18FFEA31x       Rx   d 8 FF FF FF FF FF FF FF FF  Length = 290247 BitCount = 148 ID = 419424817x
  47.000859 1  18FEE627x       Rx   d 8 2F 00 00 00 00 00 00 00  Length = 284247 BitCount = 145 ID = 419358247x
  47.999966 1  18FFEA31x       Rx   d 8 FF FF FF FF FF FF FF FF  Length = 290247 BitCount = 148 ID = 419424817x
  48.000877 1  18FEE627x       Rx   d 8 30 00 00 00 00 00 00 00  Length = 286247 BitCount = 146 ID = 419358247x
  48.999978 1  18FFEA31x       Rx   d 8 FF FF FF FF FF FF FF FF  Length = 290263 BitCount = 148 ID = 419424817x
  49.000844 1  18FEE627x       Rx   d 8 31 00 00 00 00 00 00 00  Length = 282263 BitCount = 144 ID = 419358247x
  50.000033 1  18FFEA31x       Rx   d 8 FF FF FF FF FF FF FF FF  Length = 290263 BitCount = 148 ID = 419424817x
  50.000854 1  18FEE627x       Rx   d 8 32 00 00 00 00 00 00 00  Length = 282263 BitCount = 144 ID = 419358247x
  51.000013 1  18FFEA31x       Rx   d 8 FF FF FF FF FF FF FF FF  Length = 290262 BitCount = 148 ID = 419424817x
  51.000889 1  18FEE627x       Rx   d 8 33 00 00 00 00 00 00 00  Length = 284262 BitCount = 145 ID = 419358247x
  51.999979 1  18FFEA31x       Rx   d 8 FF FF FF FF FF FF FF FF  Length = 290263 BitCount = 148 ID = 419424817x
  52.000873 1  18FEE627x       Rx   d 8 34 00 00 00 00 00 00 00  Length = 286263 BitCount = 146 ID = 419358247x
