date Wed Dec 14 03:32:50.559 pm 2022
base hex  timestamps absolute
no internal events logged
// version 16.2.0
// Measurement UUID: 57053841-9e16-482f-808e-d995983876a3
   0.001162 1  ErrorFrame	Flags = 0xfffe	CodeExt = 0x31db	Code = 0xc7	ID = 0x98ffea31	DLC = 8	Position = 119	Length = 274015	Data = 0xff  0xff  0xff  0xff  0xff  0xff  0xff  0xff
   0.001487 1  18FFEA31x       Rx   d 8 FF FF FF FF FF FF FF FF  Length = 290262 BitCount = 148 ID = 419424817x
   0.002061 1  18FEE627x       Rx   d 8 00 00 00 00 00 00 00 00  Length = 284262 BitCount = 145 ID = 419358247x
   1.001385 1  18FFEA31x       Rx   d 8 FF FF FF FF FF FF FF FF  Length = 290247 BitCount = 148 ID = 419424817x
   1.001676 1  18FEE627x       Rx   d 8 01 00 00 00 00 00 00 00  Length = 284247 BitCount = 145 ID = 419358247x
   2.001670 1  18FEE627x       Rx   d 8 02 00 00 00 00 00 00 00  Length = 284262 BitCount = 145 ID = 419358247x
   2.001966 1  18FFEA31x       Rx   d 8 FF FF FF FF FF FF FF FF  Length = 290262 BitCount = 148 ID = 419424817x
   3.001384 1  18FFEA31x       Rx   d 8 FF FF FF FF FF FF FF FF  Length = 290247 BitCount = 148 ID = 419424817x
   3.001673 1  18FEE627x       Rx   d 8 03 00 00 00 00 00 00 00  Length = 282247 BitCount = 144 ID = 419358247x
   4.001395 1  18FEE627x       Rx   d 8 04 00 00 00 00 00 00 00  Length = 286247 BitCount = 146 ID = 419358247x
   4.001691 1  18FFEA31x       Rx   d 8 FF FF FF FF FF FF FF FF  Length = 290247 BitCount = 148 ID = 419424817x
   5.001507 1  18FFEA31x       Rx   d 8 FF FF FF FF FF FF FF FF  Length = 290262 BitCount = 148 ID = 419424817x
   5.001796 1  18FEE627x       Rx   d 8 05 00 00 00 00 00 00 00  Length = 282262 BitCount = 144 ID = 419358247x
   6.001602 1  18FEE627x       Rx   d 8 06 00 00 00 00 00 00 00  Length = 284263 BitCount = 145 ID = 419358247x
   6.001899 1  18FFEA31x       Rx   d 8 FF FF FF FF FF FF FF FF  Length = 290263 BitCount = 148 ID = 419424817x
   7.001652 1  18FFEA31x       Rx   d 8 FF FF FF FF FF FF FF FF  Length = 290247 BitCount = 148 ID = 419424817x
   7.001941 1  18FEE627x       Rx   d 8 07 00 00 00 00 00 00 00  Length = 282247 BitCount = 144 ID = 419358247x
   8.001672 1  18FEE627x       Rx   d 8 08 00 00 00 00 00 00 00  Length = 284247 BitCount = 145 ID = 419358247x
   8.001969 1  18FFEA31x       Rx   d 8 FF FF FF FF FF FF FF FF  Length = 290247 BitCount = 148 ID = 419424817x
   9.001658 1  18FFEA31x       Rx   d 8 FF FF FF FF FF FF FF FF  Length = 290247 BitCount = 148 ID = 419424817x
   9.001947 1  18FEE627x       Rx   d 8 09 00 00 00 00 00 00 00  Length = 282247 BitCount = 144 ID = 419358247x
  10.001590 1  18FEE627x       Rx   d 8 0A 00 00 00 00 00 00 00  Length = 282247 BitCount = 144 ID = 419358247x
  10.002345 1  18FFEA31x       Rx   d 8 20 A1 23 4A A3 45 6A A5  Length = 264247 BitCount = 135 ID = 419424817x
  11.001637 1  18FEE627x       Rx   d 8 0B 00 00 00 00 00 00 00  Length = 284247 BitCount = 145 ID = 419358247x
  11.002429 1  18FFEA31x       Rx   d 8 20 A1 23 4A A3 45 6A A5  Length = 264247 BitCount = 135 ID = 419424817x
  12.001501 1  18FEE627x       Rx   d 8 0C 00 00 00 00 00 00 00  Length = 282263 BitCount = 144 ID = 419358247x
  12.002151 1  18FFEA31x       Rx   d 8 20 A1 23 4A A3 45 6A A5  Length = 264263 BitCount = 135 ID = 419424817x
  13.001577 1  18FEE627x       Rx   d 8 0D 00 00 00 00 00 00 00  Length = 286247 BitCount = 146 ID = 419358247x
  13.002347 1  18FFEA31x       Rx   d 8 20 A1 23 4A A3 45 6A A5  Length = 264247 BitCount = 135 ID = 419424817x
  14.001617 1  18FEE627x       Rx   d 8 0E 00 00 00 00 00 00 00  Length = 286247 BitCount = 146 ID = 419358247x
  14.002365 1  18FFEA31x       Rx   d 8 20 A1 23 4A A3 45 6A A5  Length = 264247 BitCount = 135 ID = 419424817x
  15.001657 1  18FEE627x       Rx   d 8 0F 00 00 00 00 00 00 00  Length = 284263 BitCount = 145 ID = 419358247x
  15.002355 1  18FFEA31x       Rx   d 8 20 A1 23 4A A3 45 6A A5  Length = 264263 BitCount = 135 ID = 419424817x
  16.001604 1  18FEE627x       Rx   d 8 10 00 00 00 00 00 00 00  Length = 284263 BitCount = 145 ID = 419358247x
  16.002348 1  18FFEA31x       Rx   d 8 20 A1 23 4A A3 45 6A A5  Length = 264263 BitCount = 135 ID = 419424817x
  17.001645 1  18FEE627x       Rx   d 8 11 00 00 00 00 00 00 00  Length = 284247 BitCount = 145 ID = 419358247x
  17.002329 1  18FFEA31x       Rx   d 8 20 A1 23 4A A3 45 6A A5  Length = 264247 BitCount = 135 ID = 419424817x
  18.001606 1  18FEE627x       Rx   d 8 12 00 00 00 00 00 00 00  Length = 284247 BitCount = 145 ID = 419358247x
  18.002362 1  18FFEA31x       Rx   d 8 20 A1 23 4A A3 45 6A A5  Length = 264247 BitCount = 135 ID = 419424817x
  19.001635 1  18FEE627x       Rx   d 8 13 00 00 00 00 00 00 00  Length = 284247 BitCount = 145 ID = 419358247x
  19.002416 1  18FFEA31x       Rx   d 8 20 A1 23 4A A3 45 6A A5  Length = 264247 BitCount = 135 ID = 419424817x
  20.001364 1  18FEE627x       Rx   d 8 14 00 00 00 00 00 00 00  Length = 282247 BitCount = 144 ID = 419358247x
  20.006315 1  18FFEA31x       Rx   d 8 20 A1 23 4A A3 45 6A A5  Length = 264247 BitCount = 135 ID = 419424817x
  21.001370 1  18FEE627x       Rx   d 8 15 00 00 00 00 00 00 00  Length = 282247 BitCount = 144 ID = 419358247x
  21.006316 1  18FFEA31x       Rx   d 8 21 B1 23 4B B3 45 6B B5  Length = 264247 BitCount = 135 ID = 419424817x
  22.001385 1  18FEE627x       Rx   d 8 16 00 00 00 00 00 00 00  Length = 282247 BitCount = 144 ID = 419358247x
  22.006547 1  18FFEA31x       Rx   d 8 20 A1 23 4A A3 45 6A A5  Length = 264247 BitCount = 135 ID = 419424817x
  23.001410 1  18FEE627x       Rx   d 8 17 00 00 00 00 00 00 00  Length = 282247 BitCount = 144 ID = 419358247x
  23.006568 1  18FFEA31x       Rx   d 8 21 B1 23 4B B3 45 6B B5  Length = 264247 BitCount = 135 ID = 419424817x
  24.001609 1  18FEE627x       Rx   d 8 18 00 00 00 00 00 00 00  Length = 284247 BitCount = 145 ID = 419358247x
  24.006550 1  18FFEA31x       Rx   d 8 20 A1 23 4A A3 45 6A A5  Length = 264247 BitCount = 135 ID = 419424817x
  25.001600 1  18FEE627x       Rx   d 8 19 00 00 00 00 00 00 00  Length = 284263 BitCount = 145 ID = 419358247x
  25.006541 1  18FFEA31x       Rx   d 8 21 B1 23 4B B3 45 6B B5  Length = 264263 BitCount = 135 ID = 419424817x
  26.001613 1  18FEE627x       Rx   d 8 1A 00 00 00 00 00 00 00  Length = 284263 BitCount = 145 ID = 419358247x
  26.006562 1  18FFEA31x       Rx   d 8 20 A1 23 4A A3 45 6A A5  Length = 264263 BitCount = 135 ID = 419424817x
  27.001592 1  18FEE627x       Rx   d 8 1B 00 00 00 00 00 00 00  Length = 282263 BitCount = 144 ID = 419358247x
  27.006546 1  18FFEA31x       Rx   d 8 21 B1 23 4B B3 45 6B B5  Length = 264263 BitCount = 135 ID = 419424817x
  28.001665 1  18FEE627x       Rx   d 8 1C 00 00 00 00 00 00 00  Length = 282247 BitCount = 144 ID = 419358247x
  28.006547 1  18FFEA31x       Rx   d 8 20 A1 23 4A A3 45 6A A5  Length = 264247 BitCount = 135 ID = 419424817x
  29.001582 1  18FEE627x       Rx   d 8 1D 00 00 00 00 00 00 00  Length = 282247 BitCount = 144 ID = 419358247x
  29.006556 1  18FFEA31x       Rx   d 8 21 B1 23 4B B3 45 6B B5  Length = 264247 BitCount = 135 ID = 419424817x
  30.001654 1  18FEE627x       Rx   d 8 1E 00 00 00 00 00 00 00  Length = 284247 BitCount = 145 ID = 419358247x
  30.011557 1  18FFEA31x       Rx   d 8 20 A1 23 4A A3 45 6A A5  Length = 264247 BitCount = 135 ID = 419424817x
  31.001448 1  18FEE627x       Rx   d 8 1F 00 00 00 00 00 00 00  Length = 284247 BitCount = 145 ID = 419358247x
  31.011546 1  18FFEA31x       Rx   d 8 21 B1 23 4B B3 45 6B B5  Length = 264247 BitCount = 135 ID = 419424817x
  32.001603 1  18FEE627x       Rx   d 8 20 00 00 00 00 00 00 00  Length = 284263 BitCount = 145 ID = 419358247x
  32.011547 1  18FFEA31x       Rx   d 8 22 C1 23 4C C3 45 6C C5  Length = 264263 BitCount = 135 ID = 419424817x
  33.001404 1  18FEE627x       Rx   d 8 21 00 00 00 00 00 00 00  Length = 282247 BitCount = 144 ID = 419358247x
  33.011614 1  18FFEA31x       Rx   d 8 20 A1 23 4A A3 45 6A A5  Length = 264247 BitCount = 135 ID = 419424817x
  34.001359 1  18FEE627x       Rx   d 8 22 00 00 00 00 00 00 00  Length = 284247 BitCount = 145 ID = 419358247x
  34.011595 1  18FFEA31x       Rx   d 8 21 B1 23 4B B3 45 6B B5  Length = 264247 BitCount = 135 ID = 419424817x
  35.001458 1  18FEE627x       Rx   d 8 23 00 00 00 00 00 00 00  Length = 282247 BitCount = 144 ID = 419358247x
  35.011540 1  18FFEA31x       Rx   d 8 22 C1 23 4C C3 45 6C C5  Length = 264247 BitCount = 135 ID = 419424817x
  36.001379 1  18FEE627x       Rx   d 8 24 00 00 00 00 00 00 00  Length = 282262 BitCount = 144 ID = 419358247x
  36.011618 1  18FFEA31x       Rx   d 8 20 A1 23 4A A3 45 6A A5  Length = 264262 BitCount = 135 ID = 419424817x
  37.001362 1  18FEE627x       Rx   d 8 25 00 00 00 00 00 00 00  Length = 284262 BitCount = 145 ID = 419358247x
  37.011340 1  18FFEA31x       Rx   d 8 21 B1 23 4B B3 45 6B B5  Length = 264262 BitCount = 135 ID = 419424817x
  38.001372 1  18FEE627x       Rx   d 8 26 00 00 00 00 00 00 00  Length = 282247 BitCount = 144 ID = 419358247x
  38.011358 1  18FFEA31x       Rx   d 8 22 C1 23 4C C3 45 6C C5  Length = 264247 BitCount = 135 ID = 419424817x
  39.001356 1  18FEE627x       Rx   d 8 27 00 00 00 00 00 00 00  Length = 282247 BitCount = 144 ID = 419358247x
  39.021331 1  18FFEA31x       Rx   d 8 20 A1 23 4A A3 45 6A A5  Length = 264247 BitCount = 135 ID = 419424817x
  40.001348 1  18FEE627x       Rx   d 8 28 00 00 00 00 00 00 00  Length = 284262 BitCount = 145 ID = 419358247x
  40.021554 1  18FFEA31x       Rx   d 8 21 B1 23 4B B3 45 6B B5  Length = 264262 BitCount = 135 ID = 419424817x
  41.001372 1  18FEE627x       Rx   d 8 29 00 00 00 00 00 00 00  Length = 282262 BitCount = 144 ID = 419358247x
  41.021540 1  18FFEA31x       Rx   d 8 22 C1 23 4C C3 45 6C C5  Length = 264262 BitCount = 135 ID = 419424817x
  42.001597 1  18FEE627x       Rx   d 8 2A 00 00 00 00 00 00 00  Length = 284262 BitCount = 145 ID = 419358247x
  42.021587 1  18FFEA31x       Rx   d 8 23 D1 FF FF FF FF FF FF  Length = 282262 BitCount = 144 ID = 419424817x
  43.001602 1  18FEE627x       Rx   d 8 2B 00 00 00 00 00 00 00  Length = 282247 BitCount = 144 ID = 419358247x
  43.021576 1  18FFEA31x       Rx   d 8 20 A1 23 4A A3 45 6A A5  Length = 264247 BitCount = 135 ID = 419424817x
  44.001598 1  18FEE627x       Rx   d 8 2C 00 00 00 00 00 00 00  Length = 286247 BitCount = 146 ID = 419358247x
  44.021533 1  18FFEA31x       Rx   d 8 21 B1 23 4B B3 45 6B B5  Length = 264247 BitCount = 135 ID = 419424817x
  45.001571 1  18FEE627x       Rx   d 8 2D 00 00 00 00 00 00 00  Length = 282247 BitCount = 144 ID = 419358247x
  45.021547 1  18FFEA31x       Rx   d 8 22 C1 23 4C C3 45 6C C5  Length = 264247 BitCount = 135 ID = 419424817x
  46.001597 1  18FEE627x       Rx   d 8 2E 00 00 00 00 00 00 00  Length = 284247 BitCount = 145 ID = 419358247x
  46.021488 1  18FFEA31x       Rx   d 8 23 D1 FF FF FF FF FF FF  Length = 282247 BitCount = 144 ID = 419424817x
  47.001604 1  18FEE627x       Rx   d 8 2F 00 00 00 00 00 00 00  Length = 284247 BitCount = 145 ID = 419358247x
  47.021534 1  18FFEA31x       Rx   d 8 20 A1 23 4A A3 45 6A A5  Length = 264247 BitCount = 135 ID = 419424817x
  48.001659 1  18FEE627x       Rx   d 8 30 00 00 00 00 00 00 00  Length = 286262 BitCount = 146 ID = 419358247x
  48.021551 1  18FFEA31x       Rx   d 8 21 B1 23 4B B3 45 6B B5  Length = 264262 BitCount = 135 ID = 419424817x
  49.001603 1  18FEE627x       Rx   d 8 31 00 00 00 00 00 00 00  Length = 282263 BitCount = 144 ID = 419358247x
  49.021535 1  18FFEA31x       Rx   d 8 22 C1 23 4C C3 45 6C C5  Length = 264263 BitCount = 135 ID = 419424817x
  50.001587 1  18FEE627x       Rx   d 8 32 00 00 00 00 00 00 00  Length = 282247 BitCount = 144 ID = 419358247x
  50.021575 1  18FFEA31x       Rx   d 8 23 D1 FF FF FF FF FF FF  Length = 282247 BitCount = 144 ID = 419424817x
  51.001614 1  18FEE627x       Rx   d 8 33 00 00 00 00 00 00 00  Length = 284247 BitCount = 145 ID = 419358247x
  51.021568 1  18FFEA31x       Rx   d 8 20 A1 23 4A A3 45 6A A5  Length = 264247 BitCount = 135 ID = 419424817x
  52.001602 1  18FEE627x       Rx   d 8 34 00 00 00 00 00 00 00  Length = 286247 BitCount = 146 ID = 419358247x
  52.021544 1  18FFEA31x       Rx   d 8 21 B1 23 4B B3 45 6B B5  Length = 264247 BitCount = 135 ID = 419424817x
  53.001682 1  18FEE627x       Rx   d 8 35 00 00 00 00 00 00 00  Length = 282263 BitCount = 144 ID = 419358247x
  53.021534 1  18FFEA31x       Rx   d 8 22 C1 23 4C C3 45 6C C5  Length = 264263 BitCount = 135 ID = 419424817x
  54.001602 1  18FEE627x       Rx   d 8 36 00 00 00 00 00 00 00  Length = 282247 BitCount = 144 ID = 419358247x
  54.021576 1  18FFEA31x       Rx   d 8 23 D1 FF FF FF FF FF FF  Length = 282247 BitCount = 144 ID = 419424817x
  55.001380 1  18FEE627x       Rx   d 8 37 00 00 00 00 00 00 00  Length = 282262 BitCount = 144 ID = 419358247x
  55.021332 1  18FFEA31x       Rx   d 8 20 A1 23 4A A3 45 6A A5  Length = 264262 BitCount = 135 ID = 419424817x
  56.001372 1  18FEE627x       Rx   d 8 38 00 00 00 00 00 00 00  Length = 286247 BitCount = 146 ID = 419358247x
  56.021328 1  18FFEA31x       Rx   d 8 21 B1 23 4B B3 45 6B B5  Length = 264247 BitCount = 135 ID = 419424817x
  57.001608 1  18FEE627x       Rx   d 8 39 00 00 00 00 00 00 00  Length = 282262 BitCount = 144 ID = 419358247x
  57.021542 1  18FFEA31x       Rx   d 8 22 C1 23 4C C3 45 6C C5  Length = 264262 BitCount = 135 ID = 419424817x
  58.001600 1  18FEE627x       Rx   d 8 3A 00 00 00 00 00 00 00  Length = 282247 BitCount = 144 ID = 419358247x
  58.021558 1  18FFEA31x       Rx   d 8 23 D1 FF FF FF FF FF FF  Length = 282247 BitCount = 144 ID = 419424817x
  59.001641 1  18FEE627x       Rx   d 8 3B 00 00 00 00 00 00 00  Length = 282247 BitCount = 144 ID = 419358247x
  59.026417 1  18FFEA31x       Rx   d 8 20 A1 23 4A A3 45 6A A5  Length = 264247 BitCount = 135 ID = 419424817x
  60.001419 1  18FEE627x       Rx   d 8 3C 00 00 00 00 00 00 00  Length = 286247 BitCount = 146 ID = 419358247x
  60.026875 1  18FFEA31x       Rx   d 8 21 B1 23 4B B3 45 6B B5  Length = 264247 BitCount = 135 ID = 419424817x
  61.001604 1  18FEE627x       Rx   d 8 3D 00 00 00 00 00 00 00  Length = 284262 BitCount = 145 ID = 419358247x
  61.026472 1  18FFEA31x       Rx   d 8 22 C1 23 4C C3 45 6C C5  Length = 264262 BitCount = 135 ID = 419424817x
  62.001381 1  18FEE627x       Rx   d 8 3E 00 00 00 00 00 00 00  Length = 286263 BitCount = 146 ID = 419358247x
  62.026470 1  18FFEA31x       Rx   d 8 20 A1 23 4A A3 45 6A A5  Length = 264263 BitCount = 135 ID = 419424817x
  63.001657 1  18FEE627x       Rx   d 8 3F 00 00 00 00 00 00 00  Length = 284247 BitCount = 145 ID = 419358247x
  63.026479 1  18FFEA31x       Rx   d 8 21 B1 23 4B B3 45 6B B5  Length = 264247 BitCount = 135 ID = 419424817x
  64.001602 1  18FEE627x       Rx   d 8 40 00 00 00 00 00 00 00  Length = 282247 BitCount = 144 ID = 419358247x
  64.026818 1  18FFEA31x       Rx   d 8 22 C1 23 4C C3 45 6C C5  Length = 264247 BitCount = 135 ID = 419424817x
  65.001357 1  18FEE627x       Rx   d 8 41 00 00 00 00 00 00 00  Length = 282247 BitCount = 144 ID = 419358247x
  65.026520 1  18FFEA31x       Rx   d 8 20 A1 23 4A A3 45 6A A5  Length = 264247 BitCount = 135 ID = 419424817x
  66.001372 1  18FEE627x       Rx   d 8 42 00 00 00 00 00 00 00  Length = 280263 BitCount = 143 ID = 419358247x
  66.026522 1  18FFEA31x       Rx   d 8 21 B1 23 4B B3 45 6B B5  Length = 264263 BitCount = 135 ID = 419424817x
  67.001597 1  18FEE627x       Rx   d 8 43 00 00 00 00 00 00 00  Length = 280247 BitCount = 143 ID = 419358247x
  67.026518 1  18FFEA31x       Rx   d 8 22 C1 23 4C C3 45 6C C5  Length = 264247 BitCount = 135 ID = 419424817x
  68.001597 1  18FEE627x       Rx   d 8 44 00 00 00 00 00 00 00  Length = 282247 BitCount = 144 ID = 419358247x
  68.026519 1  18FFEA31x       Rx   d 8 20 A1 23 4A A3 45 6A A5  Length = 264247 BitCount = 135 ID = 419424817x
  69.001594 1  18FEE627x       Rx   d 8 45 00 00 00 00 00 00 00  Length = 280263 BitCount = 143 ID = 419358247x
  69.026498 1  18FFEA31x       Rx   d 8 21 B1 23 4B B3 45 6B B5  Length = 264263 BitCount = 135 ID = 419424817x
  70.001601 1  18FEE627x       Rx   d 8 46 00 00 00 00 00 00 00  Length = 284247 BitCount = 145 ID = 419358247x
  70.086497 1  18FFEA31x       Rx   d 8 20 A1 23 4A A3 45 6A A5  Length = 264247 BitCount = 135 ID = 419424817x
  71.001631 1  18FEE627x       Rx   d 8 47 00 00 00 00 00 00 00  Length = 280247 BitCount = 143 ID = 419358247x
  71.086515 1  18FFEA31x       Rx   d 8 21 B1 23 4B B3 45 6B B5  Length = 264247 BitCount = 135 ID = 419424817x
  72.001369 1  18FEE627x       Rx   d 8 48 00 00 00 00 00 00 00  Length = 280247 BitCount = 143 ID = 419358247x
  72.086260 1  18FFEA31x       Rx   d 8 20 A1 23 4A A3 45 6A A5  Length = 264247 BitCount = 135 ID = 419424817x
  73.001410 1  18FEE627x       Rx   d 8 49 00 00 00 00 00 00 00  Length = 282262 BitCount = 144 ID = 419358247x
  73.086266 1  18FFEA31x       Rx   d 8 21 B1 23 4B B3 45 6B B5  Length = 264262 BitCount = 135 ID = 419424817x
  74.001574 1  18FEE627x       Rx   d 8 4A 00 00 00 00 00 00 00  Length = 280247 BitCount = 143 ID = 419358247x
  74.086521 1  18FFEA31x       Rx   d 8 20 A1 23 4A A3 45 6A A5  Length = 264247 BitCount = 135 ID = 419424817x
  75.001601 1  18FEE627x       Rx   d 8 4B 00 00 00 00 00 00 00  Length = 282247 BitCount = 144 ID = 419358247x
  75.086489 1  18FFEA31x       Rx   d 8 21 B1 23 4B B3 45 6B B5  Length = 264247 BitCount = 135 ID = 419424817x
  76.001593 1  18FEE627x       Rx   d 8 4C 00 00 00 00 00 00 00  Length = 280263 BitCount = 143 ID = 419358247x
  76.086495 1  18FFEA31x       Rx   d 8 20 A1 23 4A A3 45 6A A5  Length = 264263 BitCount = 135 ID = 419424817x
  77.001599 1  18FEE627x       Rx   d 8 4D 00 00 00 00 00 00 00  Length = 282247 BitCount = 144 ID = 419358247x
  77.086483 1  18FFEA31x       Rx   d 8 21 B1 23 4B B3 45 6B B5  Length = 264247 BitCount = 135 ID = 419424817x
  78.001511 1  18FEE627x       Rx   d 8 4E 00 00 00 00 00 00 00  Length = 280262 BitCount = 143 ID = 419358247x
  78.086541 1  18FFEA31x       Rx   d 8 20 A1 23 4A A3 45 6A A5  Length = 264262 BitCount = 135 ID = 419424817x
  79.001607 1  18FEE627x       Rx   d 8 4F 00 00 00 00 00 00 00  Length = 284247 BitCount = 145 ID = 419358247x
  79.086499 1  18FFEA31x       Rx   d 8 21 B1 23 4B B3 45 6B B5  Length = 264247 BitCount = 135 ID = 419424817x
  80.001567 1  18FEE627x       Rx   d 8 50 00 00 00 00 00 00 00  Length = 282247 BitCount = 144 ID = 419358247x
  80.091499 1  18FFEA31x       Rx   d 8 20 A1 23 4A A3 45 6A A5  Length = 264247 BitCount = 135 ID = 419424817x
  81.001383 1  18FEE627x       Rx   d 8 51 00 00 00 00 00 00 00  Length = 282263 BitCount = 144 ID = 419358247x
  81.091523 1  18FFEA31x       Rx   d 8 20 A1 23 4A A3 45 6A A5  Length = 264263 BitCount = 135 ID = 419424817x
  82.001627 1  18FEE627x       Rx   d 8 52 00 00 00 00 00 00 00  Length = 282247 BitCount = 144 ID = 419358247x
  82.091512 1  18FFEA31x       Rx   d 8 20 A1 23 4A A3 45 6A A5  Length = 264247 BitCount = 135 ID = 419424817x
  83.001581 1  18FEE627x       Rx   d 8 53 00 00 00 00 00 00 00  Length = 284262 BitCount = 145 ID = 419358247x
  83.091580 1  18FFEA31x       Rx   d 8 20 A1 23 4A A3 45 6A A5  Length = 264262 BitCount = 135 ID = 419424817x
  84.001574 1  18FEE627x       Rx   d 8 54 00 00 00 00 00 00 00  Length = 280247 BitCount = 143 ID = 419358247x
  84.091525 1  18FFEA31x       Rx   d 8 20 A1 23 4A A3 45 6A A5  Length = 264247 BitCount = 135 ID = 419424817x
  85.001578 1  18FEE627x       Rx   d 8 55 00 00 00 00 00 00 00  Length = 280247 BitCount = 143 ID = 419358247x
  85.091522 1  18FFEA31x       Rx   d 8 20 A1 23 4A A3 45 6A A5  Length = 264247 BitCount = 135 ID = 419424817x
  86.001597 1  18FEE627x       Rx   d 8 56 00 00 00 00 00 00 00  Length = 282262 BitCount = 144 ID = 419358247x
  86.091515 1  18FFEA31x       Rx   d 8 20 A1 23 4A A3 45 6A A5  Length = 264262 BitCount = 135 ID = 419424817x
  87.001614 1  18FEE627x       Rx   d 8 57 00 00 00 00 00 00 00  Length = 280247 BitCount = 143 ID = 419358247x
  87.091593 1  18FFEA31x       Rx   d 8 20 A1 23 4A A3 45 6A A5  Length = 264247 BitCount = 135 ID = 419424817x
  88.001602 1  18FEE627x       Rx   d 8 58 00 00 00 00 00 00 00  Length = 282263 BitCount = 144 ID = 419358247x
  88.091514 1  18FFEA31x       Rx   d 8 20 A1 23 4A A3 45 6A A5  Length = 264263 BitCount = 135 ID = 419424817x
  89.001315 1  18FEE627x       Rx   d 8 59 00 00 00 00 00 00 00  Length = 282247 BitCount = 144 ID = 419358247x
  89.091290 1  18FFEA31x       Rx   d 8 20 A1 23 4A A3 45 6A A5  Length = 264247 BitCount = 135 ID = 419424817x
  90.001373 1  18FEE627x       Rx   d 8 5A 00 00 00 00 00 00 00  Length = 280247 BitCount = 143 ID = 419358247x
  90.001669 1  18FFEA31x       Rx   d 8 FF FF FF FF FF FF FF FF  Length = 290247 BitCount = 148 ID = 419424817x
  91.001353 1  18FEE627x       Rx   d 8 5B 00 00 00 00 00 00 00  Length = 280247 BitCount = 143 ID = 419358247x
  91.001649 1  18FFEA31x       Rx   d 8 FF FF FF FF FF FF FF FF  Length = 290247 BitCount = 148 ID = 419424817x
  92.001580 1  18FEE627x       Rx   d 8 5C 00 00 00 00 00 00 00  Length = 282247 BitCount = 144 ID = 419358247x
  92.001876 1  18FFEA31x       Rx   d 8 FF FF FF FF FF FF FF FF  Length = 290247 BitCount = 148 ID = 419424817x
  93.001581 1  18FEE627x       Rx   d 8 5D 00 00 00 00 00 00 00  Length = 282247 BitCount = 144 ID = 419358247x
  93.001877 1  18FFEA31x       Rx   d 8 FF FF FF FF FF FF FF FF  Length = 290247 BitCount = 148 ID = 419424817x
  94.001643 1  18FEE627x       Rx   d 8 5E 00 00 00 00 00 00 00  Length = 280247 BitCount = 143 ID = 419358247x
  94.001940 1  18FFEA31x       Rx   d 8 FF FF FF FF FF FF FF FF  Length = 290247 BitCount = 148 ID = 419424817x
  95.001386 1  18FEE627x       Rx   d 8 5F 00 00 00 00 00 00 00  Length = 282263 BitCount = 144 ID = 419358247x
  95.001682 1  18FFEA31x       Rx   d 8 FF FF FF FF FF FF FF FF  Length = 290263 BitCount = 148 ID = 419424817x
  96.001600 1  18FEE627x       Rx   d 8 60 00 00 00 00 00 00 00  Length = 284262 BitCount = 145 ID = 419358247x
  96.001896 1  18FFEA31x       Rx   d 8 FF FF FF FF FF FF FF FF  Length = 290262 BitCount = 148 ID = 419424817x
  97.001599 1  18FEE627x       Rx   d 8 61 00 00 00 00 00 00 00  Length = 280247 BitCount = 143 ID = 419358247x
  97.001895 1  18FFEA31x       Rx   d 8 FF FF FF FF FF FF FF FF  Length = 290247 BitCount = 148 ID = 419424817x
  98.001567 1  18FEE627x       Rx   d 8 62 00 00 00 00 00 00 00  Length = 280247 BitCount = 143 ID = 419358247x
  98.001863 1  18FFEA31x       Rx   d 8 FF FF FF FF FF FF FF FF  Length = 290247 BitCount = 148 ID = 419424817x
  99.001573 1  18FEE627x       Rx   d 8 63 00 00 00 00 00 00 00  Length = 282247 BitCount = 144 ID = 419358247x
  99.001870 1  18FFEA31x       Rx   d 8 FF FF FF FF FF FF FF FF  Length = 290247 BitCount = 148 ID = 419424817x
 100.001636 1  18FEE627x       Rx   d 8 64 00 00 00 00 00 00 00  Length = 280263 BitCount = 143 ID = 419358247x
 100.001932 1  18FFEA31x       Rx   d 8 FF FF FF FF FF FF FF FF  Length = 290263 BitCount = 148 ID = 419424817x
